(1725839572.174262) can0 29C#00000000FFFFFFFF
(1725839572.174321) can0 352#5C000000
(1725839572.175568) can0 657#0000
(1725839572.176530) can0 68B#F20CE4
(1725839572.176876) can0 186#183E31A31C0021
(1725839572.177107) can0 189#31C31C3F70CE0000
(1725839572.177336) can0 18A#31C80006A2043C40
(1725839572.177572) can0 1F6#1E20805C810105FE
(1725839572.177804) can0 217#0B000000000000
(1725839572.177989) can0 2C6#FFFFFFFFFFF0
(1725839572.178574) can0 17A#31C545AA00003200
(1725839572.178806) can0 17C#183050085F0C0000
(1725839572.179062) can0 17E#0000000000400800
(1725839572.179315) can0 20C#0000000000000000
(1725839572.181869) can0 62C#00
(1725839572.181993) can0 1A0#F0
(1725839572.182118) can0 563#11D0
(1725839572.182819) can0 12E#C67FFC7FE0FFFF00
(1725839572.182999) can0 090#00000000
(1725839572.183228) can0 0C6#800A8000800BACBE
(1725839572.183467) can0 1BD#0CF00D9C0000016B
(1725839572.183713) can0 29A#00000000000003FC
(1725839572.183889) can0 2B7#00E0FFFE01
(1725839572.184111) can0 356#67FF00FF0000
(1725839572.185545) can0 4AC#80
(1725839572.185723) can0 45C#00000000
(1725839572.185854) can0 5DF#00A4
(1725839572.187025) can0 186#183E31A31C0021
(1725839572.187248) can0 189#31C31C3F70CE0000
(1725839572.187470) can0 18A#31C80006A204F150
(1725839572.187711) can0 1F6#1E20805C810105FE
(1725839572.188482) can0 3F7#081004
(1725839572.188699) can0 17A#31C545AA00003200
(1725839572.188941) can0 17C#183450085F0C0000
(1725839572.189195) can0 17E#0000000000400800
(1725839572.189448) can0 20C#0000000000000000
(1725839572.192851) can0 12E#C67FFC7FE0FFFF00
(1725839572.193015) can0 090#00000000
(1725839572.193256) can0 0C6#800A800A800BAEB2
(1725839572.193496) can0 211#4E0F095BDD2000E2
(1725839572.193730) can0 242#0000FFEFFE000D
(1725839572.193865) can0 214#0400
(1725839572.194102) can0 29C#00000000FFFFFFFF
(1725839572.194344) can0 354#0000000000000000
(1725839572.196237) can0 653#00415800
(1725839572.196723) can0 186#183E31A31C0021
(1725839572.196951) can0 189#31C31C3F70CE0000
(1725839572.197189) can0 18A#31C80006A404BE60
(1725839572.197427) can0 1F6#1E20805C810105FE
(1725839572.197654) can0 217#0B000000000000
(1725839572.197864) can0 2C6#FFFFFFFFFFF0
(1725839572.198551) can0 17A#31C545AA00003200
(1725839572.198788) can0 17C#183850085F0C0000
(1725839572.199044) can0 17E#0000000000400800
(1725839572.199296) can0 20C#0000000000000000
(1725839572.202835) can0 12E#C67FFC7FE0FFFF00
(1725839572.202998) can0 090#00000000
(1725839572.203233) can0 0C6#800A7FF6800BB0C5
(1725839572.203469) can0 1BD#0CF00D9C0000016B
(1725839572.203720) can0 29A#00000000000004FB
(1725839572.203882) can0 2B7#00E0FFFE01
(1725839572.206188) can0 564#3BC0
(1725839572.207235) can0 186#184831A31C0021
(1725839572.207465) can0 189#31C31C3F70CE0000
(1725839572.207700) can0 18A#31C80006A4047370
(1725839572.207938) can0 1F6#1E20805C810105FE
(1725839572.208548) can0 17A#31C545AA00003200
(1725839572.208794) can0 17C#183C50085F0C0000
(1725839572.209043) can0 17E#0000000000400800
(1725839572.209295) can0 20C#0000000000000000
(1725839572.212894) can0 12E#C67FFC7FE0FFFF00
(1725839572.213058) can0 090#00000000
(1725839572.213300) can0 0C6#800A8000800BB2B8
(1725839572.213532) can0 211#4E0F095BDD2000E2
(1725839572.213758) can0 242#0000FFEFFE000D
(1725839572.213922) can0 214#0400
(1725839572.214145) can0 29C#00000000FFFFFFFF
(1725839572.214309) can0 352#5C000000
(1725839572.214518) can0 392#0046000000
(1725839572.214644) can0 668#4000
(1725839572.216806) can0 186#184831A31C0021
(1725839572.217034) can0 189#31C31C3F70CE0000
(1725839572.217272) can0 18A#31C80006A2040980
(1725839572.217510) can0 1F6#1E20805C810105FE
(1725839572.217737) can0 217#0B000000000000
(1725839572.217947) can0 2C6#FFFFFFFFFFF0
(1725839572.218540) can0 17A#31C545AA00003200
(1725839572.218777) can0 17C#184050085F0C0000
(1725839572.219033) can0 17E#0000000000400800
(1725839572.219285) can0 20C#0000000000000000
(1725839572.222858) can0 12E#C77FFC7FE0FFFF00
(1725839572.223022) can0 090#00000000
(1725839572.223262) can0 0C6#800A8000800BB4B6
(1725839572.223500) can0 1BD#0CC00D9C0000016B
(1725839572.223749) can0 29A#00000000000005FA
(1725839572.223996) can0 1BB#1F62000003000000
(1725839572.224164) can0 2B7#00E0FFFE01
(1725839572.224382) can0 356#67FF00FF0000
(1725839572.224637) can0 401#0000000000000000
(1725839572.224868) can0 579#011011110006C300
(1725839572.225118) can0 405#000000003C3FE000
(1725839572.225328) can0 5D7#00001290BE90FA
(1725839572.226974) can0 186#184831A31C0021
(1725839572.227203) can0 189#31C31C3F70CE0000
(1725839572.227439) can0 18A#31C80006A204C490
(1725839572.227680) can0 1F6#1E20805C810105FE
(1725839572.228550) can0 17A#31C545AA00003200
(1725839572.228787) can0 17C#184450085F0C0000
(1725839572.229042) can0 17E#0000000000400800
(1725839572.229295) can0 20C#0000000000000000
(1725839572.232857) can0 12E#C77FFC7FE0FFFF00
(1725839572.233021) can0 090#00000000
(1725839572.233269) can0 0C6#800A8000800BB6B4
(1725839572.233492) can0 211#4E0E095BDD2000E2
(1725839572.233718) can0 242#0000FFEFFE000D
(1725839572.233882) can0 214#0400
(1725839572.234105) can0 29C#00000000FFFFFFFF
(1725839572.234360) can0 354#0000000000000000
(1725839572.235493) can0 500#0253735A8D
(1725839572.235715) can0 350#C74EA3E414989485
(1725839572.235974) can0 55D#011DF00092800001
(1725839572.236390) can0 646#354A02AE00291054
(1725839572.236809) can0 186#184831A31C0021
(1725839572.237038) can0 189#31C31C3F70CE0000
(1725839572.237274) can0 18A#31C80006A4048BA0
(1725839572.237513) can0 1F6#1E20805C810105FE
(1725839572.237739) can0 217#0B000000000000
(1725839572.237950) can0 2C6#FFFFFFFFFFF0
(1725839572.238553) can0 17A#31C545AA00003200
(1725839572.238788) can0 17C#184850085F0C0000
(1725839572.239043) can0 17E#0000000000400800
(1725839572.239295) can0 20C#0000000000000000
(1725839572.242854) can0 12E#C57FFD7FE0FFFF00
(1725839572.243018) can0 090#00000000
(1725839572.243259) can0 0C6#800A8000800BB8B2
(1725839572.243497) can0 1BD#0CC00D9C0000016B
(1725839572.243746) can0 29A#00000000000006F9
(1725839572.243908) can0 2B7#00E0FFFE01
(1725839572.244114) can0 666#34000000
(1725839572.247201) can0 186#184E31A31C0021
(1725839572.247430) can0 189#31C31C3F70CE0000
(1725839572.247665) can0 18A#31C80006A40446B0
(1725839572.247903) can0 1F6#1E20805C810105FE
(1725839572.248469) can0 3F7#081004
(1725839572.248703) can0 17A#31C545AA00003200
(1725839572.248945) can0 17C#184850085F0C0000
(1725839572.249201) can0 17E#0000000000400800
(1725839572.249453) can0 20C#0000000000000000
(1725839572.252854) can0 12E#C57FFD7FE0FFFF00
(1725839572.253016) can0 090#00000000
(1725839572.253265) can0 0C6#800A8000800BBAB0
(1725839572.253490) can0 211#4E0E0953DD2000E2
(1725839572.253717) can0 242#0000FFEFFE000D
(1725839572.253879) can0 214#0400
(1725839572.254103) can0 29C#00000000FFFFFFFF
(1725839572.254227) can0 218#98
(1725839572.254396) can0 352#5C000000
(1725839572.254521) can0 4FA#0800
(1725839572.254696) can0 671#0200
(1725839572.255455) can0 552#0004
(1725839572.255694) can0 5DE#0400008000000042
(1725839572.255909) can0 303#59F25C18664000
(1725839572.256072) can0 3FA#0000
(1725839572.256873) can0 186#184E31A31C0021
(1725839572.257102) can0 189#31C31C3F70CE0000
(1725839572.257340) can0 18A#31C80006A4041FC0
(1725839572.257579) can0 1F6#1E20805C810105FE
(1725839572.257805) can0 217#0B000000000000
(1725839572.258015) can0 2C6#FFFFFFFFFFF0
(1725839572.258229) can0 511#000807A675A90D
(1725839572.258464) can0 596#8A198B601A000000
(1725839572.258698) can0 17A#31C545AA00003200
(1725839572.258938) can0 17C#184C50085F0C0000
(1725839572.259193) can0 17E#0000000000400800
(1725839572.259445) can0 20C#0000000000000000
(1725839572.259669) can0 5DA#8A614000D535EB00
(1725839572.259832) can0 634#800000
(1725839572.260061) can0 648#FFFFF064C864FA1E
(1725839572.260225) can0 65C#C05B00
(1725839572.260451) can0 66A#20FE001919C01F02
(1725839572.262799) can0 12E#C57FFC7FE0FFFF00
(1725839572.262962) can0 090#00000000
(1725839572.263211) can0 0C6#800A8000800BBCAE
(1725839572.263442) can0 1BD#0CC00D9C0000016B
(1725839572.263696) can0 29A#00000000000007F8
(1725839572.263859) can0 2B7#00E0FFFE01
(1725839572.264082) can0 356#67FF00FF0000
(1725839572.264245) can0 392#0046000000
(1725839572.265474) can0 575#4014
(1725839572.265689) can0 673#0000FFFFFFFF00
(1725839572.266875) can0 186#184E31A31C0021
(1725839572.267104) can0 189#31C31C3F70CE0000
(1725839572.267338) can0 18A#31C80006A404D2D0
(1725839572.267577) can0 1F6#1E20805C810105FE
(1725839572.268611) can0 17A#31C545AA00003200
(1725839572.268853) can0 17C#184C50085F0C0000
(1725839572.269100) can0 17E#0000000000400800
(1725839572.269356) can0 20C#0000000000000000
(1725839572.270210) can0 3B7#38FAFF8F7F46FFFF
(1725839572.271544) can0 593#0FFF0000
(1725839572.272866) can0 12E#C57FFC7FE0FFFF00
(1725839572.273032) can0 090#00000000
(1725839572.273271) can0 0C6#800A800A800BBEA2
(1725839572.273501) can0 211#4E0E0953DD2000E2
(1725839572.273727) can0 242#0000FFEFFE000D
(1725839572.273892) can0 214#0400
(1725839572.274113) can0 29C#00000000FFFFFFFF
(1725839572.274369) can0 354#0000000000000000
(1725839572.274608) can0 4F8#581430FFFF03FF00
(1725839572.275517) can0 657#0000
(1725839572.275685) can0 69F#761725DF
(1725839572.276574) can0 68B#F20CE4
(1725839572.277620) can0 186#184E31A31C0021
(1725839572.277849) can0 189#31C31C3F70CE0000
(1725839572.278083) can0 18A#31C80006A40498E0
(1725839572.278322) can0 1F6#1E20805C810105FE
(1725839572.278556) can0 17A#31C545AA00003200
(1725839572.278796) can0 17C#184C50085F0C0000
(1725839572.279051) can0 17E#0000000000400800
(1725839572.279304) can0 20C#0000000000000000
(1725839572.279524) can0 217#0B000000000000
(1725839572.279735) can0 2C6#FFFFFFFFFFF0
(1725839572.281805) can0 62C#00
(1725839572.281931) can0 1A0#F0
(1725839572.282057) can0 563#1DC0
(1725839572.282857) can0 12E#C57FFC7FE0FFFF00
(1725839572.283021) can0 090#00000000
(1725839572.283262) can0 0C6#800A7FF6800BA0D5
(1725839572.283501) can0 1BD#0CC00D9C0000016B
(1725839572.283751) can0 29A#00000000000008F7
(1725839572.283915) can0 2B7#00E0FFFE01
(1725839572.285484) can0 4AC#80
(1725839572.285648) can0 45C#00000000
(1725839572.285813) can0 5DF#00A4
(1725839572.286860) can0 186#184831A31C0021
(1725839572.287089) can0 189#31C31C3F70CE0000
(1725839572.287325) can0 18A#31C80006A40455F0
(1725839572.287565) can0 1F6#1E20805C810105FE
(1725839572.288557) can0 17A#31C545AA00003200
(1725839572.288792) can0 17C#184C50085F0C0000
(1725839572.289048) can0 17E#0000000000400800
(1725839572.289300) can0 20C#0000000000000000
(1725839572.292876) can0 12E#C57FFC7FE0FFFF00
(1725839572.293040) can0 090#00000000
(1725839572.293283) can0 0C6#800A8000800BA2C8
(1725839572.293513) can0 211#4E0E0953DD2000E2
(1725839572.293739) can0 242#0000FFEFFE000D
(1725839572.293903) can0 214#0400
(1725839572.294126) can0 29C#00000000FFFFFFFF
(1725839572.294290) can0 352#5C000000
(1725839572.296232) can0 653#00415800
(1725839572.296842) can0 186#184831A31C0021
(1725839572.297071) can0 189#31C31C3F70CE0000
(1725839572.297305) can0 18A#31C80006A4042A00
(1725839572.297543) can0 1F6#1E20805C810105FE
(1725839572.297770) can0 217#0B000000000000
(1725839572.297980) can0 2C6#FFFFFFFFFFF0
(1725839572.298555) can0 17A#31C545AA00003200
(1725839572.298792) can0 17C#184850085F0C0000
(1725839572.299048) can0 17E#0000000000400800
(1725839572.299300) can0 20C#0000000000000000
(1725839572.302809) can0 12E#C57FFC7FE0FFFF00
(1725839572.302971) can0 090#00000000
(1725839572.303220) can0 0C6#800A8000800BA4C6
(1725839572.303453) can0 1BD#0CC00D9C0000016B
(1725839572.303707) can0 29A#00000000000009F6
(1725839572.303872) can0 2B7#00E0FFFE01
(1725839572.304094) can0 356#67FF00FF0000
(1725839572.306199) can0 564#05C0
(1725839572.306886) can0 186#184831A31C0021
(1725839572.307115) can0 189#31C31C3F70CE0000
(1725839572.307351) can0 18A#31C80006A404E710
(1725839572.307590) can0 1F6#1E20805C810105FE
(1725839572.308472) can0 3F7#081004
(1725839572.308706) can0 17A#31C545AA00003200
(1725839572.308948) can0 17C#184850085F0C0000
(1725839572.309203) can0 17E#0000000000400800
(1725839572.309456) can0 20C#0000000000000000
(1725839572.312838) can0 12E#C57FFC7FE0FFFF00
(1725839572.313003) can0 090#00000000
(1725839572.313241) can0 0C6#800A800A800BA6BA
(1725839572.313471) can0 211#4E0E0953DD2000E2
(1725839572.313697) can0 242#0000FFEFFE000D
(1725839572.313861) can0 214#0400
(1725839572.314083) can0 29C#00000000FFFFFFFF
(1725839572.314334) can0 354#0000000000000000
(1725839572.314499) can0 392#0046000000
(1725839572.314663) can0 668#4000
(1725839572.317508) can0 186#184431A31C0021
(1725839572.317736) can0 189#31C31C3F60CE0000
(1725839572.317973) can0 18A#31C80006A404AD20
(1725839572.318211) can0 1F6#1E20805C810105FE
(1725839572.318437) can0 217#0B000000000000
(1725839572.318671) can0 17A#31C545AA00003200
(1725839572.318913) can0 17C#184850085F0C0000
(1725839572.319169) can0 17E#0000000000400800
(1725839572.319421) can0 20C#0000000000000000
(1725839572.319632) can0 2C6#FFFFFFFFFFF0
(1725839572.322825) can0 12E#C57FFE7FD0FFFF00
(1725839572.322989) can0 090#00000000
(1725839572.323231) can0 0C6#800A7FF6800BA8CD
(1725839572.323467) can0 1BD#0CD50D9C0000016B
(1725839572.323717) can0 29A#0000000000000AF5
(1725839572.323955) can0 1BB#1F61000003000000
(1725839572.324119) can0 2B7#00E0FFFE01
(1725839572.324383) can0 579#011011110006C300
(1725839572.324594) can0 5D7#00001290BE90FA
(1725839572.326795) can0 186#184431A31C0021
(1725839572.327025) can0 189#31C31C3F60CE0000
(1725839572.327261) can0 18A#31C80006A4046030
(1725839572.327499) can0 1F6#1E20805C810105FE
(1725839572.328569) can0 17A#31C545AA00003200
(1725839572.328805) can0 17C#184450085F0C0000
(1725839572.329061) can0 17E#0000000000400800
(1725839572.329313) can0 20C#0000000000000000
(1725839572.332854) can0 12E#C57FFE7FD0FFFF00
(1725839572.333018) can0 090#00000000
(1725839572.333268) can0 0C6#800A8000800BAAC0
(1725839572.333492) can0 211#4E0E0953DD2000E2
(1725839572.333718) can0 242#0000FFEFFE000D
(1725839572.333976) can0 29C#00000000FFFFFFFF
(1725839572.334102) can0 214#0400
(1725839572.334275) can0 352#5C000000
(1725839572.335480) can0 500#02CDE65873
(1725839572.335703) can0 350#C74EA3E414989485
(1725839572.335963) can0 55D#011DF00092800001
(1725839572.336785) can0 186#184431A31C0021
(1725839572.337014) can0 189#31C31C3F60CE0000
(1725839572.337248) can0 18A#31C80006A4043940
(1725839572.337486) can0 1F6#1E20805C810105FE
(1725839572.337713) can0 217#0B000000000000
(1725839572.337923) can0 2C6#FFFFFFFFFFF0
(1725839572.338560) can0 17A#31C545AA00003200
(1725839572.338797) can0 17C#184450085F0C0000
(1725839572.339053) can0 17E#0000000000400800
(1725839572.339305) can0 20C#0000000000000000
(1725839572.342850) can0 12E#C57FFC7FD0FFFF00
(1725839572.343014) can0 090#00000000
(1725839572.343256) can0 0C6#800A8000800BACBE
(1725839572.343492) can0 1BD#0CD50D9C0000016B
(1725839572.343739) can0 29A#0000000000000BF4
(1725839572.343903) can0 2B7#00E0FFFE01
(1725839572.344131) can0 356#67FF00FF0000
(1725839572.344295) can0 666#34000000
(1725839572.346929) can0 186#184431A31C0021
(1725839572.347158) can0 189#31C31C3F60CE0000
(1725839572.347390) can0 18A#31C80006A404F450
(1725839572.347629) can0 1F6#1E20805C810105FE
(1725839572.348568) can0 17A#31C545AA00003200
(1725839572.348805) can0 17C#184450085F0C0000
(1725839572.349060) can0 17E#0000000000400800
(1725839572.349312) can0 20C#0000000000000000
(1725839572.352873) can0 12E#C57FFC7FD0FFFF00
(1725839572.353038) can0 090#00000000
(1725839572.353276) can0 0C6#800A800A800BAEB2
(1725839572.353506) can0 211#4E0E0953DD2000E2
(1725839572.353732) can0 242#0000FFEFFE000D
(1725839572.353989) can0 29C#00000000FFFFFFFF
(1725839572.354115) can0 214#0400
(1725839572.354374) can0 354#0000000000000000
(1725839572.354500) can0 218#98
(1725839572.354672) can0 4FA#0800
(1725839572.354836) can0 671#0200
(1725839572.355438) can0 552#0004
(1725839572.355675) can0 5DE#0400008000000042
(1725839572.355891) can0 303#59064918664000
(1725839572.356055) can0 3FA#0000
(1725839572.357021) can0 186#182E31A31C0021
(1725839572.357250) can0 189#31C31C3F70CE0000
(1725839572.357488) can0 18A#31C80006A404BE60
(1725839572.357726) can0 1F6#1E20805C810105FE
(1725839572.357953) can0 217#0B000000000000
(1725839572.358163) can0 2C6#FFFFFFFFFFF0
(1725839572.358381) can0 511#0047D05FE0B6F0
(1725839572.358615) can0 17A#31C545AA00003200
(1725839572.358858) can0 17C#184450085F0C0000
(1725839572.359113) can0 17E#0000000000400800
(1725839572.359366) can0 20C#0000000000000000
(1725839572.359595) can0 596#8A198B601A000000
(1725839572.359823) can0 5DA#8A614000D535EB00
(1725839572.359987) can0 634#800000
(1725839572.360215) can0 648#FFFFF064C864FA1E
(1725839572.360380) can0 65C#C05700
(1725839572.360602) can0 66A#20FE001A1AC01F02
(1725839572.362829) can0 12E#C57FFC7FD0FFFF00
(1725839572.362993) can0 090#00000000
(1725839572.363232) can0 0C6#800A7FF6800BB0C5
(1725839572.363469) can0 1BD#0CD50D9C0000016B
(1725839572.363718) can0 29A#0000000000000CF3
(1725839572.363880) can0 2B7#00E0FFFE01
(1725839572.364087) can0 392#0046000000
(1725839572.365452) can0 575#4014
(1725839572.365673) can0 673#0000FFFFFFFF00
(1725839572.366737) can0 186#182E31A31C0021
(1725839572.366966) can0 189#31C31C3F70CE0000
(1725839572.367200) can0 18A#31C80006A4047370
(1725839572.367438) can0 1F6#1E20805C810105FE
(1725839572.368491) can0 3F7#081004
(1725839572.368718) can0 17A#31C545AA00003200
(1725839572.368960) can0 17C#184050085F0C0000
(1725839572.369216) can0 17E#0000000000400800
(1725839572.369468) can0 20C#0000000000000000
(1725839572.371548) can0 593#0FFF0000
(1725839572.372851) can0 12E#C57FFC7FD0FFFF00
(1725839572.373015) can0 090#00000000
(1725839572.373263) can0 0C6#800A8000800BB2B8
(1725839572.373488) can0 211#4E0E0953DD2000E2
(1725839572.373714) can0 242#0000FFEFFE000D
(1725839572.373972) can0 29C#00000000FFFFFFFF
(1725839572.374098) can0 214#0400
(1725839572.374271) can0 352#5C000000
(1725839572.375488) can0 657#0000
(1725839572.376272) can0 3B7#38FAFF8F7F46FFFF
(1725839572.376582) can0 68B#F20CE4
(1725839572.376791) can0 186#182E31A31C0021
(1725839572.377025) can0 189#31C31C3F70CE0000
(1725839572.377265) can0 18A#31C80006A4040C80
(1725839572.377504) can0 1F6#1E20805C810105FE
(1725839572.377730) can0 217#0B000000000000
(1725839572.377940) can0 2C6#FFFFFFFFFFF0
(1725839572.378576) can0 17A#31C545AA00003200
(1725839572.378815) can0 17C#183C50085F0C0000
(1725839572.379070) can0 17E#0000000000400800
(1725839572.379322) can0 20C#0000000000000000
(1725839572.380575) can0 4F8#581430FFFF03FF00
(1725839572.381732) can0 62C#00
(1725839572.381857) can0 1A0#F0
(1725839572.381983) can0 563#3020
(1725839572.382806) can0 12E#C67FFC7FD0FFFF00
(1725839572.382970) can0 090#00000000
(1725839572.383211) can0 0C6#800A8000800BB4B6
(1725839572.383447) can0 1BD#0CD50D9C0000016B
(1725839572.383701) can0 29A#0000000000000DF2
(1725839572.383865) can0 2B7#00E0FFFE01
(1725839572.384088) can0 356#67FF00FF0000
(1725839572.385453) can0 4AC#80
(1725839572.385617) can0 45C#00000000
(1725839572.385780) can0 5DF#00A4
(1725839572.386903) can0 186#182E31A31C0021
(1725839572.387133) can0 189#31C31C3F70CE0000
(1725839572.387369) can0 18A#31C80006A404C190
(1725839572.387608) can0 1F6#1E20805C810105FE
(1725839572.388584) can0 17A#31C545AA00003200
(1725839572.388821) can0 17C#183850085F0C0000
(1725839572.389077) can0 17E#0000000000400800
(1725839572.389329) can0 20C#0000000000000000
(1725839572.392836) can0 12E#C67FFC7FD0FFFF00
(1725839572.392999) can0 090#00000000
(1725839572.393240) can0 0C6#800A8000800BB6B4
(1725839572.393470) can0 211#4E0E0953DD2000E2
(1725839572.393697) can0 242#0000FFEFFE000D
(1725839572.393860) can0 214#0400
(1725839572.394083) can0 29C#00000000FFFFFFFF
(1725839572.394333) can0 354#0000000000000000
(1725839572.396509) can0 653#00415800
(1725839572.396843) can0 186#182A31A31C0021
(1725839572.397072) can0 189#31C31C3F60CE0000
(1725839572.397308) can0 18A#31C80006A4048BA0
(1725839572.397547) can0 1F6#1E20805C810105FE
(1725839572.397773) can0 217#0B000000000000
(1725839572.397983) can0 2C6#FFFFFFFFFFF0
(1725839572.398556) can0 17A#31C545AA00003200
(1725839572.398796) can0 17C#183450085F0C0000
(1725839572.399051) can0 17E#0000000000400800
(1725839572.399303) can0 20C#0000000000000000
(1725839572.402802) can0 12E#C67FFC7FD0FFFF00
(1725839572.402966) can0 090#00000000
(1725839572.403206) can0 0C6#800A8000800BB8B2
(1725839572.403458) can0 29A#0000000000000EF1
(1725839572.403689) can0 1BD#0CD50D9C0000016B
(1725839572.403852) can0 2B7#00E0FFFE01
(1725839572.406560) can0 564#2AC0
(1725839572.406788) can0 186#182A31A31C0021
(1725839572.407022) can0 189#31C31C3F60CE0000
(1725839572.407254) can0 18A#31C80006A40446B0
(1725839572.407492) can0 1F6#1E20805C810105FE
(1725839572.408558) can0 17A#31C545AA00003200
(1725839572.408797) can0 17C#183050085F0C0000
(1725839572.409052) can0 17E#0000000000400800
(1725839572.409304) can0 20C#0000000000000000
(1725839572.412855) can0 12E#C67FFC7FD0FFFF00
(1725839572.413019) can0 090#00000000
(1725839572.413267) can0 0C6#800A8000800BBAB0
(1725839572.413492) can0 211#4E0E0953DD2000E2
(1725839572.413718) can0 242#0000FFEFFE000D
(1725839572.413881) can0 214#0400
(1725839572.414104) can0 29C#00000000FFFFFFFF
(1725839572.414268) can0 352#5C000000
(1725839572.414476) can0 392#0046000000
(1725839572.414602) can0 668#4000
(1725839572.416803) can0 186#182A31A31C0021
(1725839572.417032) can0 189#31C31C3F70CE0000
(1725839572.417268) can0 18A#31C80006A2041AC0
(1725839572.417506) can0 1F6#1E20805C810105FE
(1725839572.417732) can0 217#0B000000000000
(1725839572.417942) can0 2C6#FFFFFFFFFFF0
(1725839572.418558) can0 17A#31C545AA00003200
(1725839572.418795) can0 17C#182C50085F0C0000
(1725839572.419050) can0 17E#0000000000400800
(1725839572.419302) can0 20C#0000000000000000
(1725839572.422853) can0 12E#C57FFB7FE0FFFF00
(1725839572.423017) can0 090#00000000
(1725839572.423258) can0 0C6#800A8000800BBCAE
(1725839572.423513) can0 29A#0000000000000FF0
(1725839572.423742) can0 1BD#0C8F0D9C0000016B
(1725839572.423904) can0 2B7#00E0FFFE01
(1725839572.424177) can0 1BB#1F62000003000000
(1725839572.424385) can0 356#67FF00FF0000
(1725839572.424634) can0 401#0000000000000000
(1725839572.424855) can0 4A4#00700000000000
(1725839572.425104) can0 405#000000003C3FE000
(1725839572.425335) can0 579#011011110006C300
(1725839572.425552) can0 5D7#00001290BE90FA
(1725839572.426986) can0 186#182A31A31C0021
(1725839572.427207) can0 189#31C31C3F70CE0000
(1725839572.427443) can0 18A#31C80006A204D7D0
(1725839572.427682) can0 1F6#1E20805C810105FE
(1725839572.428477) can0 3F7#081004
(1725839572.428711) can0 17A#31C545AA00003200
(1725839572.428960) can0 17C#182850085F0C0000
(1725839572.429209) can0 17E#0000000000400800
(1725839572.429461) can0 20C#0000000000000000
(1725839572.432862) can0 12E#C57FFB7FE0FFFF00
(1725839572.433026) can0 090#00000000
(1725839572.433266) can0 0C6#800A800A800BBEA2
(1725839572.433497) can0 211#4E0E0953DD2000E2
(1725839572.433723) can0 242#0000FFEFFE000D
(1725839572.433887) can0 214#0400
(1725839572.434109) can0 29C#00000000FFFFFFFF
(1725839572.434359) can0 354#0000000000000000
(1725839572.435467) can0 500#025319E2D0
(1725839572.435690) can0 350#C74EA3E414989485
(1725839572.435949) can0 55D#011DF00092800001
(1725839572.436827) can0 186#181E31A31C0021
(1725839572.437056) can0 189#31C31C3F70CE0000
(1725839572.437290) can0 18A#31C80006A2049DE0
(1725839572.437529) can0 1F6#1E20805C810105FE
(1725839572.437755) can0 217#0B000000000000
(1725839572.437965) can0 2C6#FFFFFFFFFFF0
(1725839572.438563) can0 17A#31C545AA00003200
(1725839572.438800) can0 17C#182850085F0C0000
(1725839572.439055) can0 17E#0000000000400800
(1725839572.439307) can0 20C#0000000000000000
(1725839572.442841) can0 12E#C67FFB7FE0FFFF00
(1725839572.443005) can0 090#00000000
(1725839572.443246) can0 0C6#800A7FF6800BA0D5
(1725839572.443498) can0 29A#00000000000000FF
(1725839572.443727) can0 1BD#0C8F0D9C0000016B
(1725839572.443891) can0 2B7#00E0FFFE01
(1725839572.444100) can0 666#34000000
(1725839572.446881) can0 186#181E31A31D0021
(1725839572.447108) can0 189#31D31C3F70CE0000
(1725839572.447342) can0 18A#31D80006A20444F0
(1725839572.447581) can0 1F6#1E20805C810105FE
(1725839572.448582) can0 17A#31C545AA00003200
(1725839572.448821) can0 17C#182450085F0C0000
(1725839572.449076) can0 17E#0000000000400800
(1725839572.449328) can0 20C#0000000000000000
(1725839572.452843) can0 12E#C67FFB7FE0FFFF00
(1725839572.453007) can0 090#00000000
(1725839572.453255) can0 0C6#800A8000800BA2C8
(1725839572.453480) can0 211#4E0E0953DD2000E2
(1725839572.453706) can0 242#0000FFEFFE000D
(1725839572.453870) can0 214#0400
(1725839572.454092) can0 29C#00000000FFFFFFFF
(1725839572.454218) can0 218#98
(1725839572.454389) can0 352#5C000000
(1725839572.454515) can0 4FA#0800
(1725839572.455027) can0 671#0200
(1725839572.455424) can0 552#0004
(1725839572.455661) can0 5DE#0400008000000042
(1725839572.455875) can0 303#5974AB18664000
(1725839572.456039) can0 3FA#0000
(1725839572.456751) can0 186#181E31A31D0021
(1725839572.456978) can0 189#31D31D3F70CE0000
(1725839572.457212) can0 18A#31D80006A2043B00
(1725839572.457450) can0 1F6#1E20805C810105FE
(1725839572.457677) can0 217#0B000000000000
(1725839572.457887) can0 2C6#FFFFFFFFFFF0
(1725839572.458096) can0 511#008699184BC3D3
(1725839572.458330) can0 596#8A1A8B601A000000
(1725839572.458566) can0 17A#31D545AA00003200
(1725839572.458815) can0 17C#182050085F0C0000
(1725839572.459065) can0 17E#0000000000400800
(1725839572.459317) can0 20C#0000000000000000
(1725839572.459542) can0 5DA#8A614000D535EB00
(1725839572.459705) can0 634#800000
(1725839572.459933) can0 648#FFFFF064C864FA1E
(1725839572.460097) can0 65C#C05400
(1725839572.460322) can0 66A#20FE001A1AC01F02
(1725839572.462789) can0 12E#C67FFC7FD0FFFF00
(1725839572.462953) can0 090#00000000
(1725839572.463192) can0 0C6#800A7FF6800BA4D1
(1725839572.463444) can0 29A#00000000000001FE
(1725839572.463608) can0 2B7#00E0FFFE01
(1725839572.463864) can0 1BD#0C8F0D9C0000016B
(1725839572.464073) can0 356#67FF00FF0000
(1725839572.464237) can0 392#0046000000
(1725839572.465441) can0 575#4014
(1725839572.465662) can0 673#0000FFFFFFFF00
(1725839572.466915) can0 186#181E31A31D0021
(1725839572.467142) can0 189#31D31D3F70CE0000
(1725839572.467376) can0 18A#31D80006A404F310
(1725839572.467615) can0 1F6#1E20805C810105FE
(1725839572.468580) can0 17A#31D545AA00003200
(1725839572.468817) can0 17C#181C50085F0C0000
(1725839572.469072) can0 17E#0000000000400800
(1725839572.469324) can0 20C#0000000000000000
(1725839572.471574) can0 593#0FFF0000
(1725839572.472813) can0 12E#C67FFC7FD0FFFF00
(1725839572.472977) can0 090#00000000
(1725839572.473216) can0 0C6#800A800A800BA6BA
(1725839572.473446) can0 211#4E0E0953DD2000E2
(1725839572.473673) can0 242#0000FFEFFE000D
(1725839572.473836) can0 214#0400
(1725839572.474059) can0 29C#00000000FFFFFFFF
(1725839572.474314) can0 354#0000000000000000
(1725839572.475460) can0 657#0000
(1725839572.476574) can0 68B#F20CE4
(1725839572.476788) can0 186#182831A31D0021
(1725839572.477020) can0 189#31D31D3F70CE0000
(1725839572.477256) can0 18A#31D80006A204BC20
(1725839572.477494) can0 1F6#1E20805C810105FE
(1725839572.477721) can0 217#0B000000000000
(1725839572.477931) can0 2C6#FFFFFFFFFFF0
(1725839572.478536) can0 3B7#38FAFF8F7F46FFFF
(1725839572.478768) can0 17A#31D545AA00003200
(1725839572.479016) can0 17C#181C50085F0C0000
(1725839572.479265) can0 17E#0000000000400800
(1725839572.479517) can0 20C#0000000000000000
(1725839572.481662) can0 62C#00
(1725839572.481788) can0 1A0#F0
(1725839572.481914) can0 563#2BA0
(1725839572.482594) can0 4F8#581430FFFF03FF00
(1725839572.482758) can0 090#00000000
(1725839572.483007) can0 0C6#800A8000800BA8C2
(1725839572.483248) can0 12E#C57FFB7FE0FFFF00
(1725839572.483499) can0 29A#00000000000002FD
(1725839572.483668) can0 2B7#00E0FFFE01
(1725839572.483916) can0 1BD#0C8F0D9C0000016B
(1725839572.485424) can0 4AC#80
(1725839572.485587) can0 45C#00000000
(1725839572.485751) can0 5DF#00A4
(1725839572.486832) can0 186#182831A31D0021
(1725839572.487059) can0 189#31D31D3F70CE0000
(1725839572.487293) can0 18A#31D80006A2047130
(1725839572.487532) can0 1F6#1E20805C810105FE
(1725839572.488503) can0 3F7#081004
(1725839572.488734) can0 17A#31D545AA00003200
(1725839572.488983) can0 17C#182050085F0C0000
(1725839572.489234) can0 17E#0000000000400800
(1725839572.489486) can0 20C#0000000000000000
(1725839572.492881) can0 12E#C57FFB7FE0FFFF00
(1725839572.493044) can0 090#00000000
(1725839572.493294) can0 0C6#800A8000800BAAC0
(1725839572.493519) can0 211#4E0E0953DD2000E2
(1725839572.493745) can0 242#0000FFEFFE000D
(1725839572.493909) can0 214#0400
(1725839572.494132) can0 29C#00000000FFFFFFFF
(1725839572.494295) can0 352#5C000000
(1725839572.496252) can0 653#00415800
(1725839572.496866) can0 186#182831A31D0021
(1725839572.497093) can0 189#31D31D3F70CE0000
(1725839572.497327) can0 18A#31D80006A2042840
(1725839572.497565) can0 1F6#1E20805C810105FE
(1725839572.497792) can0 217#0B000000000000
(1725839572.498002) can0 2C6#FFFFFFFFFFF0
(1725839572.498567) can0 17A#31D545AA00003200
(1725839572.498806) can0 17C#182450085F0C0000
(1725839572.499062) can0 17E#0000000000400800
(1725839572.499314) can0 20C#0000000000000000
(1725839572.502834) can0 12E#C57FFB7FE0FFFF00
(1725839572.502998) can0 090#00000000
(1725839572.503246) can0 0C6#800A8000800BACBE
(1725839572.503495) can0 29A#00000000000003FC
(1725839572.503663) can0 2B7#00E0FFFE01
(1725839572.503917) can0 1BD#0C8F0D9C0000016B
(1725839572.504126) can0 356#67FF00FF0000
(1725839572.506218) can0 564#13C0
(1725839572.506916) can0 186#182831A31D0021
(1725839572.507143) can0 189#31D31C3F70CE0000
(1725839572.507377) can0 18A#31D80006A204E550
(1725839572.507616) can0 1F6#1E20805C810105FE
(1725839572.508573) can0 17A#31D545AA00003200
(1725839572.508810) can0 17C#182850085F0C0000
(1725839572.509065) can0 17E#0000000000400800
(1725839572.509317) can0 20C#0000000000000000
(1725839572.512842) can0 12E#C57FFB7FE0FFFF00
(1725839572.513006) can0 090#00000000
(1725839572.513245) can0 0C6#800A800A800BAEB2
(1725839572.513475) can0 211#4E0E0953DD2000E2
(1725839572.513701) can0 242#0000FFEFFE000D
(1725839572.513865) can0 214#0400
(1725839572.514087) can0 29C#00000000FFFFFFFF
(1725839572.514341) can0 354#0000000000000000
(1725839572.514505) can0 392#0046000000
(1725839572.514669) can0 668#4000
(1725839572.517220) can0 186#183431A31D0021
(1725839572.517446) can0 189#31D31C3F70CE0000
(1725839572.517681) can0 18A#31D80006A204AF60
(1725839572.517919) can0 1F6#1E20805C810105FE
(1725839572.518145) can0 217#0B000000000000
(1725839572.518350) can0 2C6#FFFFFFFFFFF0
(1725839572.518599) can0 17A#31D545AA00003200
(1725839572.518836) can0 17C#182850085F0C0000
(1725839572.519091) can0 17E#0000000000400800
(1725839572.519343) can0 20C#0000000000000000
(1725839572.522817) can0 12E#C57FFC7FE0FFFF00
(1725839572.522981) can0 090#00000000
(1725839572.523220) can0 0C6#800A7FF6800BB0C5
(1725839572.523471) can0 29A#00000000000004FB
(1725839572.523635) can0 2B7#00E0FFFE01
(1725839572.523869) can0 5D7#00001290BE90FA
(1725839572.524107) can0 1BD#0CB60D9C0000016B
(1725839572.524342) can0 579#011011110006C300
(1725839572.524593) can0 1BB#1F62000003000000
(1725839572.524757) can0 3F9#00
(1725839572.526836) can0 186#183431A31C0021
(1725839572.527065) can0 189#31C31C3F70CE0000
(1725839572.527301) can0 18A#31C80006A2047670
(1725839572.527540) can0 1F6#1E20805C810105FE
(1725839572.528577) can0 17A#31D545AA00003200
(1725839572.528814) can0 17C#182C50085F0C0000
(1725839572.529069) can0 17E#0000000000400800
(1725839572.529321) can0 20C#0000000000000000
(1725839572.532830) can0 12E#C57FFC7FE0FFFF00
(1725839572.532994) can0 090#00000000
(1725839572.533242) can0 0C6#800A8000800BB2B8
(1725839572.533467) can0 211#4E0E0953DD2000E2
(1725839572.533693) can0 242#0000FFEFFE000D
(1725839572.533856) can0 214#0400
(1725839572.534079) can0 29C#00000000FFFFFFFF
(1725839572.534243) can0 352#5C000000
(1725839572.535459) can0 500#02D002B674
(1725839572.535682) can0 350#C74EA3E414989485
(1725839572.535941) can0 55D#011DF00092800001
(1725839572.536865) can0 186#183431A31C0021
(1725839572.537094) can0 189#31C31C3F70CE0000
(1725839572.537332) can0 18A#31C80006A2040980
(1725839572.537571) can0 1F6#1E20805C810105FE
(1725839572.537797) can0 217#0B000000000000
(1725839572.538007) can0 2C6#FFFFFFFFFFF0
(1725839572.538563) can0 17A#31C545AA00003200
(1725839572.538802) can0 17C#183050085F0C0000
(1725839572.539057) can0 17E#0000000000400800
(1725839572.539309) can0 20C#0000000000000000
(1725839572.542830) can0 12E#C57FFC7FD0FFFF00
(1725839572.542994) can0 090#00000000
(1725839572.543235) can0 0C6#800A8000800BB4B6
(1725839572.543486) can0 29A#00000000000005FA
(1725839572.543650) can0 2B7#00E0FFFE01
(1725839572.543814) can0 666#34000000
(1725839572.544083) can0 1BD#0CB60D9C0000016B
(1725839572.544292) can0 356#67FF00FF0000
(1725839572.546905) can0 186#183431A31C0021
(1725839572.547134) can0 189#31C31C3F70CE0000
(1725839572.547371) can0 18A#31C80006A204C490
(1725839572.547609) can0 1F6#1E20805C810105FE
(1725839572.548491) can0 3F7#081004
(1725839572.548725) can0 17A#31C545AA00003200
(1725839572.548975) can0 17C#183450085F0C0000
(1725839572.549225) can0 17E#0000000000400800
(1725839572.549477) can0 20C#0000000000000000
(1725839572.552834) can0 12E#C57FFC7FD0FFFF00
(1725839572.552997) can0 090#00000000
(1725839572.553238) can0 0C6#800A8000800BB6B4
(1725839572.553468) can0 211#4E0E095BDD2000E2
(1725839572.553694) can0 242#0000FFEFFE000D
(1725839572.553858) can0 214#0400
(1725839572.554081) can0 29C#00000000FFFFFFFF
(1725839572.554207) can0 218#98
(1725839572.554449) can0 354#0000000000000000
(1725839572.554612) can0 4FA#0800
(1725839572.554879) can0 671#0200
(1725839572.555419) can0 552#0004
(1725839572.555660) can0 5DE#0400008000000042
(1725839572.555870) can0 303#593F4718664000
(1725839572.556033) can0 3FA#0000
(1725839572.557236) can0 634#800000
(1725839572.557447) can0 186#182831A31C0021
(1725839572.557681) can0 189#31C31C3F70CE0000
(1725839572.557915) can0 18A#31C80006A2048EA0
(1725839572.558153) can0 1F6#1E20805C810105FE
(1725839572.558380) can0 217#0B000000000000
(1725839572.558614) can0 17A#31C545AA00003200
(1725839572.558863) can0 17C#183450085F0C0000
(1725839572.559113) can0 17E#0000000000400800
(1725839572.559366) can0 20C#0000000000000000
(1725839572.559575) can0 2C6#FFFFFFFFFFF0
(1725839572.559785) can0 511#00C562D1B6D0B6
(1725839572.560013) can0 596#8A1A8B601A000000
(1725839572.560242) can0 5DA#8A614000D535EB00
(1725839572.560480) can0 648#FFFFF064C864FA1E
(1725839572.560644) can0 65C#C05300
(1725839572.560868) can0 66A#20FE001A1AC01F02
(1725839572.562822) can0 12E#C57FFC7FB0FFFF00
(1725839572.562985) can0 090#00000000
(1725839572.563234) can0 0C6#800A8000800BB8B2
(1725839572.563473) can0 29A#00000000000006F9
(1725839572.563637) can0 2B7#00E0FFFE01
(1725839572.564099) can0 1BD#0CB60D9C0000016B
(1725839572.564264) can0 392#0046000000
(1725839572.565428) can0 575#4014
(1725839572.565648) can0 673#0000FFFFFFFF00
(1725839572.566864) can0 186#182831A31C0021
(1725839572.567093) can0 189#31C31C3F70CE0000
(1725839572.567327) can0 18A#31C80006A20443B0
(1725839572.567566) can0 1F6#1E20805C810105FE
(1725839572.568578) can0 17A#31C545AA00003200
(1725839572.568818) can0 17C#183050085F0C0000
(1725839572.569073) can0 17E#0000000000400800
(1725839572.569325) can0 20C#0000000000000000
(1725839572.571566) can0 593#0FFF0000
(1725839572.572850) can0 12E#C57FFC7FB0FFFF00
(1725839572.573013) can0 090#00000000
(1725839572.573262) can0 0C6#800A8000800BBAB0
(1725839572.573487) can0 211#4E0E095BDD2000E2
(1725839572.573713) can0 242#0000FFEFFE000D
(1725839572.573877) can0 214#0400
(1725839572.574100) can0 29C#00000000FFFFFFFF
(1725839572.574263) can0 352#5C000000
(1725839572.575427) can0 657#0000
(1725839572.576561) can0 68B#F20CE4
(1725839572.576822) can0 186#182831A31C0021
(1725839572.577051) can0 189#31C31C3F70CE0000
(1725839572.577287) can0 18A#31C80006A2041AC0
(1725839572.577525) can0 1F6#1E20805C810105FE
(1725839572.577751) can0 217#0B000000000000
(1725839572.577962) can0 2C6#FFFFFFFFFFF0
(1725839572.578591) can0 17A#31C545AA00003200
(1725839572.578828) can0 17C#182C50085F0C0000
(1725839572.579083) can0 17E#0000000000400800
(1725839572.579336) can0 20C#0000000000000000
(1725839572.581601) can0 62C#00
(1725839572.581727) can0 1A0#F0
(1725839572.581853) can0 563#3800
(1725839572.582570) can0 3B7#38FAFF8F7F46FFFF
(1725839572.582802) can0 12E#C57FFC7FD0FFFF00
(1725839572.582965) can0 090#00000000
(1725839572.583218) can0 0C6#800A8000800BBCAE
(1725839572.583466) can0 29A#00000000000007F8
(1725839572.583630) can0 2B7#00E0FFFE01
(1725839572.584168) can0 1BD#0CB60D9C0000016B
(1725839572.584372) can0 356#67FF00FF0000
(1725839572.585392) can0 4AC#80
(1725839572.585556) can0 45C#00000000
(1725839572.585719) can0 5DF#00A4
(1725839572.586392) can0 4F8#581430FFFF03FF00
(1725839572.587741) can0 186#182831A31C0021
(1725839572.587970) can0 189#31C31C3F70CE0000
(1725839572.588206) can0 18A#31C80006A204D7D0
(1725839572.588444) can0 1F6#1E20805C810105FE
(1725839572.588679) can0 17A#31C545AA00003200
(1725839572.588921) can0 17C#182850085F0C0000
(1725839572.589176) can0 17E#0000000000400800
(1725839572.589428) can0 20C#0000000000000000
(1725839572.592833) can0 12E#C57FFC7FD0FFFF00
(1725839572.592997) can0 090#00000000
(1725839572.593238) can0 0C6#800A800A800BBEA2
(1725839572.593467) can0 211#4E0E095BDD2000E2
(1725839572.593694) can0 242#0000FFEFFE000D
(1725839572.593857) can0 214#0400
(1725839572.594080) can0 29C#00000000FFFFFFFF
(1725839572.594335) can0 354#0000000000000000
(1725839572.596262) can0 653#00415800
(1725839572.596866) can0 186#182831A31C0021
(1725839572.597095) can0 189#31C31C3F70CE0000
(1725839572.597330) can0 18A#31C80006A2049DE0
(1725839572.597568) can0 1F6#1E20805C810105FE
(1725839572.597794) can0 217#0B000000000000
(1725839572.598004) can0 2C6#FFFFFFFFFFF0
(1725839572.598584) can0 17A#31C545AA00003200
(1725839572.598821) can0 17C#182850085F0C0000
(1725839572.599076) can0 17E#0000000000400800
(1725839572.599328) can0 20C#0000000000000000
(1725839572.602783) can0 12E#C67FFE7FE0FFFF00
(1725839572.602947) can0 090#00000000
(1725839572.603187) can0 0C6#800A7FF6800BA0D5
(1725839572.603437) can0 29A#00000000000008F7
(1725839572.603601) can0 2B7#00E0FFFE01
(1725839572.604249) can0 1BD#0CB60D9C0000016B
(1725839572.606228) can0 564#37D0
(1725839572.606842) can0 186#182831A31D0021
(1725839572.607069) can0 189#31D31C3F70CE0000
(1725839572.607303) can0 18A#31D80006A20444F0
(1725839572.607543) can0 1F6#1E20805C810105FE
(1725839572.608482) can0 3F7#081004
(1725839572.608716) can0 17A#31C545AA00003200
(1725839572.608965) can0 17C#182850085F0C0000
(1725839572.609214) can0 17E#0000000000400800
(1725839572.609466) can0 20C#0000000000000000
(1725839572.612817) can0 12E#C67FFE7FE0FFFF00
(1725839572.612981) can0 090#00000000
(1725839572.613229) can0 0C6#800A8000800BA2C8
(1725839572.613453) can0 211#4E0E095BDD2000E2
(1725839572.613679) can0 242#0000FFEFFE000D
(1725839572.613843) can0 214#0400
(1725839572.614066) can0 29C#00000000FFFFFFFF
(1725839572.614230) can0 352#5C000000
(1725839572.614439) can0 392#0046000000
(1725839572.614564) can0 668#4000
(1725839572.616798) can0 186#182831A31D0021
(1725839572.617025) can0 189#31D31C3F70CE0000
(1725839572.617259) can0 18A#31D80006A2043B00
(1725839572.617497) can0 1F6#1E20805C810105FE
(1725839572.617724) can0 217#0B000000000000
(1725839572.617934) can0 2C6#FFFFFFFFFFF0
(1725839572.618565) can0 17A#31D545AA00003200
(1725839572.618802) can0 17C#182850085F0C0000
(1725839572.619058) can0 17E#0000000000400800
(1725839572.619310) can0 20C#0000000000000000
(1725839572.622814) can0 12E#C67FFE7FE0FFFF00
(1725839572.622978) can0 090#00000000
(1725839572.623227) can0 0C6#800A8000800BA4C6
(1725839572.623467) can0 29A#00000000000009F6
(1725839572.623632) can0 2B7#00E0FFFE01
(1725839572.623870) can0 5D7#00001290BE90FA
(1725839572.624305) can0 1BD#0C510D9C0000016B
(1725839572.624514) can0 356#67FF00FF0000
(1725839572.624750) can0 1BB#1F63000003000000
(1725839572.625006) can0 401#0000000000000000
(1725839572.625237) can0 579#011011110006C300
(1725839572.625486) can0 405#000000003C3FE000
(1725839572.627791) can0 186#182231A31D0021
(1725839572.628018) can0 189#31D31C3F70CE0000
(1725839572.628252) can0 18A#31D80006A204F610
(1725839572.628490) can0 1F6#1E20805C810105FE
(1725839572.628727) can0 17A#31D545AA00003200
(1725839572.628976) can0 17C#182850085F0C0000
(1725839572.629224) can0 17E#0000000000400800
(1725839572.629476) can0 20C#0000000000000000
(1725839572.632853) can0 12E#C67FFE7FE0FFFF00
(1725839572.633017) can0 090#00000000
(1725839572.633256) can0 0C6#800A800A800BA6BA
(1725839572.633486) can0 211#4E0E095BDD2000E2
(1725839572.633712) can0 242#0000FFEFFE000D
(1725839572.633875) can0 214#0400
(1725839572.634098) can0 29C#00000000FFFFFFFF
(1725839572.634349) can0 354#0000000000000000
(1725839572.635442) can0 500#0294A58A61
(1725839572.635664) can0 350#C74EA3E414989485
(1725839572.635923) can0 55D#011DF00092800001
(1725839572.636892) can0 186#182231A31D0021
(1725839572.637118) can0 189#31D31C3F70CE0000
(1725839572.637361) can0 18A#31D80006A204BC20
(1725839572.637595) can0 1F6#1E20805C810105FE
(1725839572.637821) can0 217#0B000000000000
(1725839572.638031) can0 2C6#FFFFFFFFFFF0
(1725839572.638576) can0 17A#31D545AA00003200
(1725839572.638815) can0 17C#182450085F0C0000
(1725839572.639071) can0 17E#0000000000400800
(1725839572.639323) can0 20C#0000000000000000
(1725839572.642845) can0 12E#C67FFC7FE0FFFF00
(1725839572.643010) can0 090#00000000
(1725839572.643250) can0 0C6#800A7FF6800BA8CD
(1725839572.643500) can0 29A#0000000000000AF5
(1725839572.643664) can0 2B7#00E0FFFE01
(1725839572.643829) can0 666#34000000
(1725839572.644363) can0 1BD#0C510D9C0000016B
(1725839572.646822) can0 186#182231A31D0021
(1725839572.647049) can0 189#31D31C3F70CE0000
(1725839572.647284) can0 18A#31D80006A2047130
(1725839572.647522) can0 1F6#1E20805C810105FE
(1725839572.648579) can0 17A#31D545AA00003200
(1725839572.648819) can0 17C#182050085F0C0000
(1725839572.649074) can0 17E#0000000000400800
(1725839572.649326) can0 20C#0000000000000000
(1725839572.651665) can0 433#00000000FFDFF8
(1725839572.652829) can0 12E#C67FFC7FE0FFFF00
(1725839572.652993) can0 090#00000000
(1725839572.653243) can0 0C6#800A8000800BAAC0
(1725839572.653468) can0 211#4E0E095BDD2000E2
(1725839572.653694) can0 242#0000FFEFFE000D
(1725839572.653858) can0 214#0400
(1725839572.654080) can0 29C#00000000FFFFFFFF
(1725839572.654207) can0 218#98
(1725839572.654374) can0 352#5C000000
(1725839572.654748) can0 4FA#0800
(1725839572.654912) can0 671#0200
(1725839572.655400) can0 552#0004
(1725839572.655638) can0 5DE#0400008000000042
(1725839572.655851) can0 303#593F4718664000
(1725839572.656015) can0 3FA#0000
(1725839572.656873) can0 186#182231A31D0021
(1725839572.657100) can0 189#31D31C3F70CE0000
(1725839572.657334) can0 18A#31D80006A2042840
(1725839572.657572) can0 1F6#1E20805C810105FE
(1725839572.657799) can0 217#0B000000000000
(1725839572.658009) can0 2C6#FFFFFFFFFFF0
(1725839572.658219) can0 511#00042B8A21DD99
(1725839572.658454) can0 596#8A1A8B601A000000
(1725839572.658690) can0 17A#31D545AA00003200
(1725839572.658940) can0 17C#182050085F0C0000
(1725839572.659190) can0 17E#0000000000400800
(1725839572.659442) can0 20C#0000000000000000
(1725839572.659666) can0 5DA#8A614000D535EB00
(1725839572.659830) can0 634#800000
(1725839572.660057) can0 648#FFFFF064C864FA1E
(1725839572.660222) can0 65C#C05800
(1725839572.660446) can0 66A#20FE001A1AC01F02
(1725839572.662771) can0 12E#C57FFC7FD0FFFF00
(1725839572.662935) can0 090#00000000
(1725839572.663185) can0 0C6#800A8000800BACBE
(1725839572.663425) can0 29A#0000000000000BF4
(1725839572.663589) can0 2B7#00E0FFFE01
(1725839572.664024) can0 392#0046000000
(1725839572.664453) can0 1BD#0C510D9C0000016B
(1725839572.664662) can0 356#67FF00FF0000
(1725839572.665415) can0 575#4014
(1725839572.665635) can0 673#0000FFFFFFFF00
(1725839572.667654) can0 186#183031B31D0021
(1725839572.667880) can0 189#31D31C3F70CE0000
(1725839572.668114) can0 18A#31D80006A204E550
(1725839572.668352) can0 1F6#1E20805C810105FE
(1725839572.668516) can0 3F7#081004
(1725839572.668741) can0 17A#31D545AA00003200
(1725839572.668991) can0 17C#182050085F0C0000
(1725839572.669241) can0 17E#0000000000400800
(1725839572.669493) can0 20C#0000000000000000
(1725839572.671623) can0 593#0FFF0000
(1725839572.672812) can0 12E#C57FFC7FD0FFFF00
(1725839572.672976) can0 090#00000000
(1725839572.673215) can0 0C6#800A800A800BAEB2
(1725839572.673445) can0 211#4E0E095BDD2000E2
(1725839572.673671) can0 242#0000FFEFFE000D
(1725839572.673835) can0 214#0400
(1725839572.674057) can0 29C#00000000FFFFFFFF
(1725839572.674313) can0 354#0000000000000000
(1725839572.675397) can0 657#0000
(1725839572.676609) can0 68B#F20CE4
(1725839572.676819) can0 186#183031B31D0021
(1725839572.677051) can0 189#31D31C3F70CE0000
(1725839572.677285) can0 18A#31D80006A204AF60
(1725839572.677523) can0 1F6#1E20805C810105FE
(1725839572.677749) can0 217#0B000000000000
(1725839572.677959) can0 2C6#FFFFFFFFFFF0
(1725839572.678583) can0 17A#31D545AA00003200
(1725839572.678822) can0 17C#182450085F0C0000
(1725839572.679077) can0 17E#0000000000400800
(1725839572.679329) can0 20C#0000000000000000
(1725839572.681531) can0 62C#00
(1725839572.681657) can0 1A0#F0
(1725839572.681784) can0 563#3900
(1725839572.682772) can0 12E#C67FFC7FD0FFFF00
(1725839572.682936) can0 090#00000000
(1725839572.683176) can0 0C6#800A7FF6800BB0C5
(1725839572.683426) can0 29A#0000000000000CF3
(1725839572.683590) can0 2B7#00E0FFFE01
(1725839572.684480) can0 1BD#0C510D9C0000016B
(1725839572.685361) can0 4AC#80
(1725839572.685524) can0 45C#00000000
(1725839572.685686) can0 5DF#00A4
(1725839572.686301) can0 3B7#38FAFF8F7F46FFFF
(1725839572.686786) can0 186#183031B31C0021
(1725839572.687015) can0 189#31C31C3F70CE0000
(1725839572.687251) can0 18A#31C80006A2047670
(1725839572.687490) can0 1F6#1E20805C810105FE
(1725839572.688575) can0 17A#31D545AA00003200
(1725839572.688812) can0 17C#182850085F0C0000
(1725839572.689067) can0 17E#0000000000400800
(1725839572.689320) can0 20C#0000000000000000
(1725839572.690250) can0 4F8#581430FFFF03FF00
(1725839572.692845) can0 12E#C67FFC7FD0FFFF00
(1725839572.693007) can0 090#00000000
(1725839572.693256) can0 0C6#800A8000800BB2B8
(1725839572.693481) can0 211#4E0E095BDD2000E2
(1725839572.693707) can0 242#0000FFEFFE000D
(1725839572.693870) can0 214#0400
(1725839572.694094) can0 29C#00000000FFFFFFFF
(1725839572.694256) can0 352#5C000000
(1725839572.696272) can0 653#00415800
(1725839572.696852) can0 186#183031B31C0021
(1725839572.697081) can0 189#31C31C3F70CE0000
(1725839572.697319) can0 18A#31C80006A2040980
(1725839572.697558) can0 1F6#1E20805C810105FE
(1725839572.697784) can0 217#0B000000000000
(1725839572.697994) can0 2C6#FFFFFFFFFFF0
(1725839572.698597) can0 17A#31C545AA00003200
(1725839572.698834) can0 17C#182C50085F0C0000
(1725839572.699090) can0 17E#0000000000400800
(1725839572.699342) can0 20C#0000000000000000
(1725839572.702818) can0 12E#C57FFB7FE0FFFF00
(1725839572.702982) can0 090#00000000
(1725839572.703223) can0 0C6#800A8000800BB4B6
(1725839572.703477) can0 29A#0000000000000DF2
(1725839572.703642) can0 2B7#00E0FFFE01
(1725839572.704537) can0 1BD#0C510D9C0000016B
(1725839572.704747) can0 356#67FF00FF0000
(1725839572.706236) can0 564#1DC0
(1725839572.706964) can0 186#183631A31C0021
(1725839572.707193) can0 189#31C31C3F70CE0000
(1725839572.707429) can0 18A#31C80006A204C490
(1725839572.707668) can0 1F6#1E20805C810105FE
(1725839572.708589) can0 17A#31C545AA00003200
(1725839572.708828) can0 17C#183050085F0C0000
(1725839572.709083) can0 17E#0000000000400800
(1725839572.709336) can0 20C#0000000000000000
(1725839572.712852) can0 12E#C57FFB7FE0FFFF00
(1725839572.713016) can0 090#00000000
(1725839572.713257) can0 0C6#800A8000800BB6B4
(1725839572.713487) can0 211#4E0E095BDD2000E2
(1725839572.713713) can0 242#0000FFEFFE000D
(1725839572.713877) can0 214#0400
(1725839572.714099) can0 29C#00000000FFFFFFFF
(1725839572.714355) can0 354#0000000000000000
(1725839572.714519) can0 392#0046000000
(1725839572.714683) can0 668#4000
(1725839572.714904) can0 699#28328A1080000980
(1725839572.716852) can0 186#183631A31C0021
(1725839572.717081) can0 189#31C31C3F70CE0000
(1725839572.717315) can0 18A#31C80006A2048EA0
(1725839572.717553) can0 1F6#1E20805C810105FE
(1725839572.717779) can0 217#0B000000000000
(1725839572.717990) can0 2C6#FFFFFFFFFFF0
(1725839572.718569) can0 17A#31C545AA00003200
(1725839572.718808) can0 17C#183450085F0C0000
(1725839572.719063) can0 17E#0000000000400800
(1725839572.719316) can0 20C#0000000000000000
(1725839572.722802) can0 12E#C57FFA7FF0FFFF00
(1725839572.722966) can0 090#00000000
(1725839572.723207) can0 0C6#800A8000800BB8B2
(1725839572.723458) can0 29A#0000000000000EF1
(1725839572.723623) can0 2B7#00E0FFFE01
(1725839572.723856) can0 5D7#00001290BE90FA
(1725839572.724631) can0 1BD#0C990D9C0000016B
(1725839572.724862) can0 579#011011110006C300
(1725839572.725112) can0 1BB#1F62000003000000
(1725839572.726842) can0 186#183631A31C0021
(1725839572.727071) can0 189#31C31C3F70CE0000
(1725839572.727305) can0 18A#31C80006A20443B0
(1725839572.727545) can0 1F6#1E20805C810105FE
(1725839572.728494) can0 3F7#081004
(1725839572.728728) can0 17A#31C545AA00003200
(1725839572.728977) can0 17C#183450085F0C0000
(1725839572.729228) can0 17E#0000000000400800
(1725839572.729480) can0 20C#0000000000000000
(1725839572.732819) can0 12E#C57FFA7FF0FFFF00
(1725839572.732983) can0 090#00000000
(1725839572.733225) can0 0C6#800A8000800BBAB0
(1725839572.733455) can0 211#4E0E095BDD2000E2
(1725839572.733681) can0 242#0000FFEFFE000D
(1725839572.733846) can0 214#0400
(1725839572.734068) can0 29C#00000000FFFFFFFF
(1725839572.734232) can0 352#5C000000
(1725839572.735433) can0 500#02E551BF83
(1725839572.735660) can0 350#C74EA3E414989485
(1725839572.735916) can0 55D#011DF00092800001
(1725839572.736816) can0 186#183631A31C0021
(1725839572.737045) can0 189#31C31C3F70CE0000
(1725839572.737281) can0 18A#31C80006A2041AC0
(1725839572.737520) can0 1F6#1E20805C810105FE
(1725839572.737746) can0 217#0B000000000000
(1725839572.737956) can0 2C6#FFFFFFFFFFF0
(1725839572.738453) can0 646#354A02AE00291054
(1725839572.738682) can0 17A#31C545AA00003200
(1725839572.738933) can0 17C#183450085F0C0000
(1725839572.739182) can0 17E#0000000000400800
(1725839572.739434) can0 20C#0000000000000000
(1725839572.742823) can0 12E#C57FFC7FE0FFFF00
(1725839572.742986) can0 090#00000000
(1725839572.743227) can0 0C6#800A8000800BBCAE
(1725839572.743483) can0 29A#0000000000000FF0
(1725839572.743646) can0 2B7#00E0FFFE01
(1725839572.743808) can0 666#34000000
(1725839572.744706) can0 1BD#0C990D9C0000016B
(1725839572.744912) can0 356#67FF00FF0000
(1725839572.746968) can0 186#183E31A31C0021
(1725839572.747197) can0 189#31C31C3F70CE0000
(1725839572.747433) can0 18A#31C80006A204D7D0
(1725839572.747675) can0 1F6#1E20805C810105FE
(1725839572.748597) can0 17A#31C545AA00003200
(1725839572.748836) can0 17C#183450085F0C0000
(1725839572.749091) can0 17E#0000000000400800
(1725839572.749344) can0 20C#0000000000000000
(1725839572.752814) can0 12E#C57FFC7FE0FFFF00
(1725839572.752978) can0 090#00000000
(1725839572.753219) can0 0C6#800A800A800BBEA2
(1725839572.753449) can0 211#4E0E0953DD2000E2
(1725839572.753675) can0 242#0000FFEFFE000D
(1725839572.753839) can0 214#0400
(1725839572.754062) can0 29C#00000000FFFFFFFF
(1725839572.754188) can0 218#98
(1725839572.754429) can0 354#0000000000000000
(1725839572.754593) can0 4FA#0800
(1725839572.754757) can0 671#0200
(1725839572.755387) can0 552#0004
(1725839572.755626) can0 5DE#0400008000000042
(1725839572.755840) can0 303#59A48818664000
(1725839572.756005) can0 3FA#0000
(1725839572.756824) can0 186#183E31A31C0021
(1725839572.757053) can0 189#31C31C3F70CE0000
(1725839572.757287) can0 18A#31C80006A2049DE0
(1725839572.757526) can0 1F6#1E20805C810105FE
(1725839572.757752) can0 217#0B000000000000
(1725839572.757963) can0 2C6#FFFFFFFFFFF0
(1725839572.758175) can0 511#0043F4438CEA7C
(1725839572.758409) can0 596#8A1A8B601A000000
(1725839572.758643) can0 17A#31C545AA00003200
(1725839572.758886) can0 17C#183850085F0C0000
(1725839572.759141) can0 17E#0000000000400800
(1725839572.759393) can0 20C#0000000000000000
(1725839572.759616) can0 5DA#8A614000D535EB00
(1725839572.759780) can0 634#800000
(1725839572.760008) can0 648#FFFFF064C864FA1E
(1725839572.760172) can0 65C#C05A00
(1725839572.760399) can0 66A#20FE001B1BC01F02
(1725839572.762784) can0 12E#C67FFC7FD0FFFF00
(1725839572.762948) can0 090#00000000
(1725839572.763189) can0 0C6#800A7FF6800BA0D5
(1725839572.763441) can0 29A#00000000000000FF
(1725839572.763606) can0 2B7#00E0FFFE01
(1725839572.764037) can0 392#0046000000
(1725839572.764780) can0 1BD#0C990D9C0000016B
(1725839572.765402) can0 575#4014
(1725839572.765623) can0 673#0000FFFFFFFF00
(1725839572.766742) can0 186#183E31A31C0021
(1725839572.766971) can0 189#31C31C3F70CE0000
(1725839572.767203) can0 18A#31C80006A20450F0
(1725839572.767442) can0 1F6#1E20805C810105FE
(1725839572.768630) can0 17A#31C545AA00003200
(1725839572.768868) can0 17C#183C50085F0C0000
(1725839572.769124) can0 17E#0000000000400800
(1725839572.769376) can0 20C#0000000000000000
(1725839572.771607) can0 593#0FFF0000
(1725839572.772845) can0 12E#C67FFC7FD0FFFF00
(1725839572.773009) can0 090#00000000
(1725839572.773258) can0 0C6#800A8000800BA2C8
(1725839572.773482) can0 211#4E0E0953DD2000E2
(1725839572.773708) can0 242#0000FFEFFE000D
(1725839572.773873) can0 214#0400
(1725839572.774094) can0 29C#00000000FFFFFFFF
(1725839572.774259) can0 352#5C000000
(1725839572.775370) can0 657#0000
(1725839572.776590) can0 68B#F20CE4
(1725839572.776803) can0 186#183E31A31C0021
(1725839572.777037) can0 189#31C31C3F70CE0000
(1725839572.777276) can0 18A#31C80006A2042F00
(1725839572.777514) can0 1F6#1E20805C810105FE
(1725839572.777740) can0 217#0B000000000000
(1725839572.777950) can0 2C6#FFFFFFFFFFF0
(1725839572.778582) can0 17A#31C545AA00003200
(1725839572.778821) can0 17C#183C50085F0C0000
(1725839572.779076) can0 17E#0000000000400800
(1725839572.779328) can0 20C#0000000000000000
(1725839572.781464) can0 62C#00
(1725839572.781589) can0 1A0#F0
(1725839572.781716) can0 563#02B0
(1725839572.782803) can0 12E#C57FFC7FB0FFFF00
(1725839572.782967) can0 090#00000000
(1725839572.783217) can0 0C6#800A8000800BA4C6
(1725839572.783457) can0 29A#00000000000001FE
(1725839572.783624) can0 2B7#00E0FFFE01
(1725839572.784852) can0 1BD#0C990D9C0000016B
(1725839572.785062) can0 356#67FF00FF0000
(1725839572.785333) can0 4AC#80
(1725839572.785497) can0 45C#00000000
(1725839572.785661) can0 5DF#00A4
(1725839572.787345) can0 186#184431A31C0021
(1725839572.787575) can0 189#31C31C3F70CE0000
(1725839572.787807) can0 18A#31C80006A204E210
(1725839572.788045) can0 1F6#1E20805C810105FE
(1725839572.788493) can0 3F7#081004
(1725839572.788727) can0 17A#31C545AA00003200
(1725839572.788977) can0 17C#183C50085F0C0000
(1725839572.789227) can0 17E#0000000000400800
(1725839572.789479) can0 20C#0000000000000000
(1725839572.792576) can0 3B7#38FAFF8F7F46FFFF
(1725839572.792806) can0 12E#C57FFC7FB0FFFF00
(1725839572.792971) can0 090#00000000
(1725839572.793224) can0 0C6#800A8000800BA6C4
(1725839572.793449) can0 211#4E0E0953DD2000E2
(1725839572.793675) can0 242#0000FFEFFE000D
(1725839572.793840) can0 214#0400
(1725839572.794062) can0 29C#00000000FFFFFFFF
(1725839572.794317) can0 354#0000000000000000
(1725839572.796206) can0 4F8#581430FFFF03FF00
(1725839572.796551) can0 653#00415800
(1725839572.796804) can0 186#184431A31C0021
(1725839572.797033) can0 189#31C31C3F70CE0000
(1725839572.797271) can0 18A#31C80006A204A820
(1725839572.797509) can0 1F6#1E20805C810105FE
(1725839572.797736) can0 217#0B000000000000
(1725839572.797946) can0 2C6#FFFFFFFFFFF0
(1725839572.798581) can0 17A#31C545AA00003200
(1725839572.798818) can0 17C#184050085F0C0000
(1725839572.799074) can0 17E#0000000000400800
(1725839572.799326) can0 20C#0000000000000000
(1725839572.802772) can0 12E#C57FFC7FB0FFFF00
(1725839572.802936) can0 090#00000000
(1725839572.803179) can0 0C6#800A8000800BA8C2
(1725839572.803430) can0 29A#00000000000002FD
(1725839572.803595) can0 2B7#00E0FFFE01
(1725839572.804943) can0 1BD#0C990D9C0000016B
(1725839572.806603) can0 564#2C10
(1725839572.806814) can0 186#184431A31C0021
(1725839572.807049) can0 189#31C31C3F70CE0000
(1725839572.807281) can0 18A#31C80006A2046530
(1725839572.807519) can0 1F6#1E20805C810105FE
(1725839572.808587) can0 17A#31C545AA00003200
(1725839572.808824) can0 17C#184450085F0C0000
(1725839572.809079) can0 17E#0000000000400800
(1725839572.809331) can0 20C#0000000000000000
(1725839572.812798) can0 12E#C57FFC7FB0FFFF00
(1725839572.812961) can0 090#00000000
(1725839572.813211) can0 0C6#800A8000800BAAC0
(1725839572.813437) can0 211#4E0E0953DD2000E2
(1725839572.813663) can0 242#0000FFEFFE000D
(1725839572.813825) can0 214#0400
(1725839572.814049) can0 29C#00000000FFFFFFFF
(1725839572.814211) can0 352#5C000000
(1725839572.814418) can0 392#0046000000
(1725839572.814543) can0 668#4000
(1725839572.816756) can0 186#184431A31C0021
(1725839572.816984) can0 189#31C31C3F70CE0000
(1725839572.817218) can0 18A#31C80006A2043C40
(1725839572.817457) can0 1F6#1E20805C810105FE
(1725839572.817683) can0 217#0B000000000000
(1725839572.817893) can0 2C6#FFFFFFFFFFF0
(1725839572.818581) can0 17A#31C545AA00003200
(1725839572.818818) can0 17C#184450085F0C0000
(1725839572.819073) can0 17E#0000000000400800
(1725839572.819325) can0 20C#0000000000000000
(1725839572.822774) can0 12E#C57FFC7FB0FFFF00
(1725839572.822938) can0 090#00000000
(1725839572.823180) can0 0C6#800A8000800BACBE
(1725839572.823434) can0 29A#00000000000003FC
(1725839572.823598) can0 2B7#00E0FFFE01
(1725839572.823831) can0 5D7#00001290BE90FA
(1725839572.825013) can0 1BD#0CA70D9C0000016B
(1725839572.825223) can0 356#67FF00FF0000
(1725839572.825458) can0 1BB#1F62000003000000
(1725839572.825713) can0 401#0000000000000000
(1725839572.825934) can0 4A4#00700000000000
(1725839572.826184) can0 405#000000003C3FE000
(1725839572.826415) can0 579#011011110006C300
(1725839572.827355) can0 186#184231A31C0021
(1725839572.827584) can0 189#31C31C3F70CE0000
(1725839572.827818) can0 18A#31C80006A204F150
(1725839572.828056) can0 1F6#1E20805C810105FE
(1725839572.828601) can0 17A#31C545AA00003200
(1725839572.828838) can0 17C#184450085F0C0000
(1725839572.829094) can0 17E#0000000000400800
(1725839572.829346) can0 20C#0000000000000000
(1725839572.832812) can0 12E#C57FFC7FB0FFFF00
(1725839572.832976) can0 090#00000000
(1725839572.833217) can0 0C6#800A8000800BAEBC
(1725839572.833447) can0 211#4E0E0953DD2000E2
(1725839572.833673) can0 242#0000FFEFFE000D
(1725839572.833837) can0 214#0400
(1725839572.834059) can0 29C#00000000FFFFFFFF
(1725839572.834315) can0 354#0000000000000000
(1725839572.835419) can0 500#02D969B747
(1725839572.835642) can0 350#C74EA3E414989485
(1725839572.835901) can0 55D#011DF00092800001
(1725839572.836769) can0 186#184231A31C0021
(1725839572.836998) can0 189#31C31C3F70CE0000
(1725839572.837233) can0 18A#31C80006A204BB60
(1725839572.837471) can0 1F6#1E20805C810105FE
(1725839572.837697) can0 217#0B000000000000
(1725839572.837907) can0 2C6#FFFFFFFFFFF0
(1725839572.838577) can0 17A#31C545AA00003200
(1725839572.838814) can0 17C#184050085F0C0000
(1725839572.839069) can0 17E#0000000000400800
(1725839572.839322) can0 20C#0000000000000000
(1725839572.842844) can0 12E#C67FFC7FD0FFFF00
(1725839572.843008) can0 090#00000000
(1725839572.843249) can0 0C6#800A8000800BB0BA
(1725839572.843500) can0 29A#00000000000004FB
(1725839572.843665) can0 2B7#00E0FFFE01
(1725839572.843829) can0 666#34000000
(1725839572.845131) can0 1BD#0CA70D9C0000016B
(1725839572.846809) can0 186#184231A31C0021
(1725839572.847038) can0 189#31C31C3F70CE0000
(1725839572.847275) can0 18A#31C80006A2047670
(1725839572.847513) can0 1F6#1E20805C810105FE
(1725839572.848503) can0 3F7#081004
(1725839572.848737) can0 17A#31C545AA00003200
(1725839572.848979) can0 17C#184050085F0C0000
(1725839572.849235) can0 17E#0000000000400800
(1725839572.849487) can0 20C#0000000000000000
(1725839572.852839) can0 12E#C67FFC7FD0FFFF00
(1725839572.853004) can0 090#00000000
(1725839572.853246) can0 0C6#800A8000800BB2B8
(1725839572.853476) can0 211#4E0E0953DD2000E2
(1725839572.853702) can0 242#0000FFEFFE000D
(1725839572.853866) can0 214#0400
(1725839572.854089) can0 29C#00000000FFFFFFFF
(1725839572.854253) can0 352#5C000000
(1725839572.854374) can0 218#98
(1725839572.854549) can0 4FA#0800
(1725839572.854714) can0 671#0200
(1725839572.855381) can0 552#0004
(1725839572.855621) can0 5DE#0400008000000042
(1725839572.855831) can0 303#5969C718664000
(1725839572.855995) can0 3FA#0000
(1725839572.856789) can0 186#184231A31C0021
(1725839572.857019) can0 189#31C31C3F70CE0000
(1725839572.857257) can0 18A#31C80006A2040980
(1725839572.857495) can0 1F6#1E20805C810105FE
(1725839572.857722) can0 217#0B000000000000
(1725839572.857932) can0 2C6#FFFFFFFFFFF0
(1725839572.858148) can0 511#0082BDFCF7F75F
(1725839572.858377) can0 596#8A1B8B601A000000
(1725839572.858617) can0 17A#31C545AA00003200
(1725839572.858859) can0 17C#184050085F0C0000
(1725839572.859114) can0 17E#0000000000400800
(1725839572.859366) can0 20C#0000000000000000
(1725839572.859590) can0 5DA#8A614000D535EB00
(1725839572.859754) can0 634#800000
(1725839572.859982) can0 648#FFFFF064C864FA1E
(1725839572.860146) can0 65C#C05600
(1725839572.860365) can0 66A#20FE001B1BC01F02
(1725839572.862778) can0 12E#C67FFC7FE0FFFF00
(1725839572.862942) can0 090#00000000
(1725839572.863183) can0 0C6#800A8000800BB4B6
(1725839572.863434) can0 29A#00000000000005FA
(1725839572.863598) can0 2B7#00E0FFFE01
(1725839572.864051) can0 392#0046000000
(1725839572.865191) can0 1BD#0CA70D9C0000016B
(1725839572.865402) can0 356#67FF00FF0000
(1725839572.865528) can0 575#4014
(1725839572.865754) can0 673#0000FFFFFFFF00
(1725839572.867320) can0 186#181631A31C0021
(1725839572.867550) can0 189#31C31C3F70CE0000
(1725839572.867785) can0 18A#31C80006A204C490
(1725839572.868024) can0 1F6#1E20805C810105FE
(1725839572.868595) can0 17A#31C545AA00003200
(1725839572.868832) can0 17C#184050085F0C0000
(1725839572.869087) can0 17E#0000000000400800
(1725839572.869340) can0 20C#0000000000000000
(1725839572.871613) can0 593#0FFF0000
(1725839572.872796) can0 12E#C67FFC7FE0FFFF00
(1725839572.872960) can0 090#00000000
(1725839572.873201) can0 0C6#800A8000800BB6B4
(1725839572.873431) can0 211#4E0E0953DD2000E2
(1725839572.873658) can0 242#0000FFEFFE000D
(1725839572.873822) can0 214#0400
(1725839572.874044) can0 29C#00000000FFFFFFFF
(1725839572.874299) can0 354#0000000000000000
(1725839572.875335) can0 657#0000
(1725839572.876596) can0 68B#F20CE4
(1725839572.876896) can0 186#181631A31C0021
(1725839572.877125) can0 189#31C31C3F70CE0000
(1725839572.877359) can0 18A#31C80006A2048EA0
(1725839572.877597) can0 1F6#1E20805C810105FE
(1725839572.877824) can0 217#0B000000000000
(1725839572.878034) can0 2C6#FFFFFFFFFFF0
(1725839572.878585) can0 17A#31C545AA00003200
(1725839572.878824) can0 17C#183C50085F0C0000
(1725839572.879080) can0 17E#0000000000400800
(1725839572.879332) can0 20C#0000000000000000
(1725839572.881393) can0 62C#00
(1725839572.881519) can0 1A0#F0
(1725839572.881645) can0 563#3860
(1725839572.882770) can0 12E#C67FFC7FE0FFFF00
(1725839572.882934) can0 090#00000000
(1725839572.883176) can0 0C6#800A8000800BB8B2
(1725839572.883427) can0 29A#00000000000006F9
(1725839572.883591) can0 2B7#00E0FFFE01
(1725839572.885263) can0 1BD#0CA70D9C0000016B
(1725839572.885389) can0 4AC#80
(1725839572.885560) can0 45C#00000000
(1725839572.885724) can0 5DF#00A4
(1725839572.886788) can0 186#181631A31C0021
(1725839572.887017) can0 189#31C31C3F70CE0000
(1725839572.887252) can0 18A#31C80006A20443B0
(1725839572.887490) can0 1F6#1E20805C810105FE
(1725839572.888587) can0 17A#31C545AA00003200
(1725839572.888827) can0 17C#183450085F0C0000
(1725839572.889082) can0 17E#0000000000400800
(1725839572.889334) can0 20C#0000000000000000
(1725839572.892795) can0 12E#C67FFC7FE0FFFF00
(1725839572.892959) can0 090#00000000
(1725839572.893207) can0 0C6#800A8000800BBAB0
(1725839572.893431) can0 211#4E0E0953DD2000E2
(1725839572.893657) can0 242#0000FFEFFE000D
(1725839572.893821) can0 214#0400
(1725839572.894044) can0 29C#00000000FFFFFFFF
(1725839572.894208) can0 352#5C000000
(1725839572.896354) can0 3B7#38FAFF8F7F46FFFF
(1725839572.896518) can0 653#00415800
(1725839572.896772) can0 186#181631A31D0021
(1725839572.896999) can0 189#31D31D3F70CE0000
(1725839572.897235) can0 18A#31D80006A2040EC0
(1725839572.897474) can0 1F6#1E20805C810105FE
(1725839572.897700) can0 217#0B000000000000
(1725839572.897910) can0 2C6#FFFFFFFFFFF0
(1725839572.898592) can0 17A#31C545AA00003200
(1725839572.898830) can0 17C#183050085F0C0000
(1725839572.899086) can0 17E#0000000000400800
(1725839572.899338) can0 20C#0000000000000000
(1725839572.901399) can0 4F8#581430FFFF03FF00
(1725839572.902792) can0 12E#C67FFD7FD0FFFF00
(1725839572.902956) can0 090#00000000
(1725839572.903198) can0 0C6#800A8000800BBCAE
(1725839572.903451) can0 29A#00000000000007F8
(1725839572.903615) can0 2B7#00E0FFFE01
(1725839572.905316) can0 1BD#0CA70D9C0000016B
(1725839572.905525) can0 356#67FF00FF0000
(1725839572.906258) can0 564#1860
(1725839572.906970) can0 186#180231B31D0021
(1725839572.907197) can0 189#31D31D3F70CE0000
(1725839572.907433) can0 18A#31D80006A204C3D0
(1725839572.907672) can0 1F6#1E20805C810105FE
(1725839572.908512) can0 3F7#081004
(1725839572.908748) can0 17A#31D545AA00003200
(1725839572.908990) can0 17C#182C50085F0C0000
(1725839572.909246) can0 17E#0000000000400800
(1725839572.909498) can0 20C#0000000000000000
(1725839572.912830) can0 12E#C67FFD7FD0FFFF00
(1725839572.912994) can0 090#00000000
(1725839572.913235) can0 0C6#800A800A800BBEA2
(1725839572.913465) can0 211#4E0E0953DD2000E2
(1725839572.913691) can0 242#0000FFEFFE000D
(1725839572.913855) can0 214#0400
(1725839572.914078) can0 29C#00000000FFFFFFFF
(1725839572.914333) can0 354#0000000000000000
(1725839572.914497) can0 392#0046000000
(1725839572.914660) can0 668#4000
(1725839572.916804) can0 186#180231B31D0021
(1725839572.917031) can0 189#31D31D3F70CE0000
(1725839572.917265) can0 18A#31D80006A20489E0
(1725839572.917503) can0 1F6#1E20805C810105FE
(1725839572.917730) can0 217#0B000000000000
(1725839572.917940) can0 2C6#FFFFFFFFFFF0
(1725839572.918581) can0 17A#31D545AA00003200
(1725839572.918820) can0 17C#182450085F0C0000
(1725839572.919076) can0 17E#0000000000400800
(1725839572.919328) can0 20C#0000000000000000
(1725839572.922811) can0 12E#C67FFC7FB0FFFF00
(1725839572.922975) can0 090#00000000
(1725839572.923215) can0 0C6#800A7FF6800BA0D5
(1725839572.923464) can0 29A#00000000000008F7
(1725839572.923629) can0 2B7#00E0FFFE01
(1725839572.923862) can0 5D7#00001290BE90FA
(1725839572.925397) can0 1BD#0CD50D9C0000016B
(1725839572.925628) can0 579#011011110006C300
(1725839572.925878) can0 1BB#1F61000003000000
(1725839572.926776) can0 186#180231B31D0021
(1725839572.927003) can0 189#31D31D3F70CE0000
(1725839572.927237) can0 18A#31D80006A20444F0
(1725839572.927475) can0 1F6#1E20805C810105FE
(1725839572.928591) can0 17A#31D545AA00003200
(1725839572.928830) can0 17C#182050085F0C0000
(1725839572.929085) can0 17E#0000000000400800
(1725839572.929337) can0 20C#0000000000000000
(1725839572.932804) can0 12E#C67FFC7FB0FFFF00
(1725839572.932968) can0 090#00000000
(1725839572.933206) can0 0C6#800A7FF6800BA2D3
(1725839572.933437) can0 211#4E0E0953DD2000E2
(1725839572.933663) can0 242#0000FFEFFE000D
(1725839572.933827) can0 214#0400
(1725839572.934049) can0 29C#00000000FFFFFFFF
(1725839572.934213) can0 352#5C000000
(1725839572.935403) can0 500#0276B6CC29
(1725839572.935626) can0 350#C74EA3E414989485
(1725839572.935885) can0 55D#011DF00092800001
(1725839572.937609) can0 186#180E31B31D0021
(1725839572.937836) can0 189#31D31D3F70CE0000
(1725839572.938071) can0 18A#31D80006A2043B00
(1725839572.938309) can0 1F6#1E20805C810105FE
(1725839572.938535) can0 217#0B000000000000
(1725839572.938771) can0 17A#31D545AA00003200
(1725839572.939020) can0 17C#181C50085F0C0000
(1725839572.939269) can0 17E#0000000000400800
(1725839572.939521) can0 20C#0000000000000000
(1725839572.939731) can0 2C6#FFFFFFFFFFF0
(1725839572.942797) can0 12E#C67FFC7FD0FFFF00
(1725839572.942961) can0 090#00000000
(1725839572.943203) can0 0C6#800A800A800BA4BC
(1725839572.943454) can0 29A#00000000000009F6
(1725839572.943622) can0 2B7#00E0FFFE01
(1725839572.943786) can0 666#34000000
(1725839572.945459) can0 1BD#0CD50D9C0000016B
(1725839572.945668) can0 356#67FF00FF0000
(1725839572.946975) can0 186#180E31B31D0021
(1725839572.947202) can0 189#31D31D3F70CE0000
(1725839572.947437) can0 18A#31D80006A204F610
(1725839572.947676) can0 1F6#1E20805C810105FE
(1725839572.948610) can0 17A#31D545AA00003200
(1725839572.948849) can0 17C#181850085F0C0000
(1725839572.949105) can0 17E#0000000000400800
(1725839572.949357) can0 20C#0000000000000000
(1725839572.952791) can0 12E#C67FFC7FD0FFFF00
(1725839572.952955) can0 090#00000000
(1725839572.953194) can0 0C6#800A800A800BA6BA
(1725839572.953424) can0 211#4E0E095BDD2000E2
(1725839572.953650) can0 242#0000FFEFFE000D
(1725839572.953814) can0 214#0400
(1725839572.954037) can0 29C#00000000FFFFFFFF
(1725839572.954292) can0 354#0000000000000000
(1725839572.954418) can0 218#98
(1725839572.954589) can0 4FA#0800
(1725839572.954753) can0 671#0200
(1725839572.955467) can0 5DE#0400008000000042
(1725839572.955593) can0 552#0004
(1725839572.955835) can0 303#59479818664000
(1725839572.955999) can0 3FA#0000
(1725839572.956780) can0 186#180E31B31D0021
(1725839572.957006) can0 189#31D31D3F70CE0000
(1725839572.957243) can0 18A#31D80006A204BC20
(1725839572.957481) can0 1F6#1E20805C810105FE
(1725839572.957707) can0 217#0B000000000000
(1725839572.957917) can0 2C6#FFFFFFFFFFF0
(1725839572.958132) can0 511#00C186B5620442
(1725839572.958366) can0 596#8A1B8B601A000000
(1725839572.958602) can0 17A#31D545AA00003200
(1725839572.958854) can0 17C#181450085F0C0000
(1725839572.959104) can0 17E#0000000000400800
(1725839572.959356) can0 20C#0000000000000000
(1725839572.959580) can0 5DA#8A614000D535EB00
(1725839572.959744) can0 634#800000
(1725839572.959972) can0 648#FFFFF064C864FA1E
(1725839572.960135) can0 65C#C05400
(1725839572.960360) can0 66A#20FE001B1BC01F02
(1725839572.962757) can0 12E#C57FFC7FD0FFFF00
(1725839572.962921) can0 090#00000000
(1725839572.963162) can0 0C6#800A7FF6800BA8CD
(1725839572.963412) can0 29A#0000000000000AF5
(1725839572.963576) can0 2B7#00E0FFFE01
(1725839572.964064) can0 392#0046000000
(1725839572.965452) can0 673#0000FFFFFFFF00
(1725839572.965683) can0 1BD#0CD50D9C0000016B
(1725839572.965847) can0 575#4014
(1725839572.966807) can0 186#180E31B31D0021
(1725839572.967034) can0 189#31D31D3F70CE0000
(1725839572.967269) can0 18A#31D80006A2047130
(1725839572.967507) can0 1F6#1E20805C810105FE
(1725839572.968521) can0 3F7#081004
(1725839572.968757) can0 17A#31D545AA00003200
(1725839572.969006) can0 17C#181050085F0C0000
(1725839572.969256) can0 17E#0000000000400800
(1725839572.969509) can0 20C#0000000000000000
(1725839572.971634) can0 593#0FFF0000
(1725839572.972803) can0 12E#C57FFC7FD0FFFF00
(1725839572.972967) can0 090#00000000
(1725839572.973218) can0 0C6#800A8000800BAAC0
(1725839572.973443) can0 211#4E0E095BDD2000E2
(1725839572.973669) can0 242#0000FFEFFE000D
(1725839572.973833) can0 214#0400
(1725839572.974055) can0 29C#00000000FFFFFFFF
(1725839572.974219) can0 352#5C000000
(1725839572.975305) can0 657#0000
(1725839572.976607) can0 68B#F20CE4
(1725839572.977711) can0 186#181A31B31D0021
(1725839572.977938) can0 189#31D31D3F70CE0000
(1725839572.978172) can0 18A#31D80006A2042840
(1725839572.978411) can0 1F6#1E20805C810105FE
(1725839572.978647) can0 17A#31D545AA00003200
(1725839572.978896) can0 17C#180C50085F0C0000
(1725839572.979147) can0 17E#0000000000400800
(1725839572.979399) can0 20C#0000000000000000
(1725839572.979623) can0 217#0B000000000000
(1725839572.979832) can0 2C6#FFFFFFFFFFF0
(1725839572.981325) can0 62C#00
(1725839572.981451) can0 1A0#F0
(1725839572.981577) can0 563#1800
(1725839572.982783) can0 12E#C67FFC7FD0FFFF00
(1725839572.982947) can0 090#00000000
(1725839572.983196) can0 0C6#800A8000800BACBE
(1725839572.983436) can0 29A#0000000000000BF4
(1725839572.983601) can0 2B7#00E0FFFE01
(1725839572.985272) can0 4AC#80
(1725839572.985435) can0 45C#00000000
(1725839572.985694) can0 1BD#0CD50D9C0000016B
(1725839572.985903) can0 356#67FF00FF0000
(1725839572.986028) can0 5DF#00A4
(1725839572.986923) can0 186#181A31B31D0021
(1725839572.987149) can0 189#31D31D3F70CE0000
(1725839572.987384) can0 18A#31D80006A204E550
(1725839572.987622) can0 1F6#1E20805C810105FE
(1725839572.988592) can0 17A#31D545AA00003200
(1725839572.988830) can0 17C#181050085F0C0000
(1725839572.989086) can0 17E#0000000000400800
(1725839572.989338) can0 20C#0000000000000000
(1725839572.992813) can0 12E#C67FFC7FD0FFFF00
(1725839572.992977) can0 090#00000000
(1725839572.993215) can0 0C6#800A800A800BAEB2
(1725839572.993445) can0 211#4E0E095BDD2000E2
(1725839572.993672) can0 242#0000FFEFFE000D
(1725839572.993835) can0 214#0400
(1725839572.994058) can0 29C#00000000FFFFFFFF
(1725839572.994313) can0 354#0000000000000000
(1725839572.996302) can0 653#00415800
(1725839572.996782) can0 186#181A31B31D0021
(1725839572.997009) can0 189#31D31D3F70CE0000
(1725839572.997243) can0 18A#31D80006A204AF60
(1725839572.997481) can0 1F6#1E20805C810105FE
(1725839572.997708) can0 217#0B000000000000
(1725839572.997918) can0 2C6#FFFFFFFFFFF0
(1725839572.998587) can0 17A#31D545AA00003200
(1725839572.998828) can0 17C#181450085F0C0000
(1725839572.999084) can0 17E#0000000000400800
(1725839572.999336) can0 20C#0000000000000000
(1725839573.001301) can0 3B7#38FAFF8F7F46FFFF
(1725839573.002758) can0 12E#C67FFC7FD0FFFF00
(1725839573.002922) can0 090#00000000
(1725839573.003161) can0 0C6#800A7FF6800BB0C5
(1725839573.003411) can0 29A#0000000000000CF3
(1725839573.003575) can0 2B7#00E0FFFE01
(1725839573.005625) can0 1BD#0CD50D9C0000016B
(1725839573.006250) can0 4F8#581430FFFF03FF00
(1725839573.006374) can0 564#29E0
(1725839573.006812) can0 186#181A31B31D0021
(1725839573.007039) can0 189#31D31D3F70CE0000
(1725839573.007271) can0 18A#31D80006A2046270
(1725839573.007510) can0 1F6#1E20805C810105FE
(1725839573.008599) can0 17A#31D545AA00003200
(1725839573.008838) can0 17C#181850085F0C0000
(1725839573.009093) can0 17E#0000000000400800
(1725839573.009345) can0 20C#0000000000000000
(1725839573.012808) can0 12E#C67FFC7FD0FFFF00
(1725839573.012972) can0 090#00000000
(1725839573.013221) can0 0C6#800A8000800BB2B8
(1725839573.013445) can0 211#4E0E095BDD2000E2
(1725839573.013671) can0 242#0000FFEFFE000D
(1725839573.013834) can0 214#0400
(1725839573.014057) can0 29C#00000000FFFFFFFF
(1725839573.014221) can0 352#5C000000
(1725839573.014430) can0 392#0046000000
(1725839573.014556) can0 668#4000
(1725839573.016812) can0 186#182831B31D0021
(1725839573.017038) can0 189#31D31D3F70CE0000
(1725839573.017275) can0 18A#31D80006A2041D80
(1725839573.017513) can0 1F6#1E20805C810105FE
(1725839573.017739) can0 217#0B000000000000
(1725839573.017950) can0 2C6#FFFFFFFFFFF0
(1725839573.018629) can0 17A#31D545AA00003200
(1725839573.018868) can0 17C#181850085F0C0000
(1725839573.019123) can0 17E#0000000000400800
(1725839573.019375) can0 20C#0000000000000000
(1725839573.022775) can0 12E#C57FFC7FD0FFFF00
(1725839573.022939) can0 090#00000000
(1725839573.023179) can0 0C6#800A800A800BB4AC
(1725839573.023432) can0 29A#0000000000000DF2
(1725839573.023596) can0 2B7#00E0FFFE01
(1725839573.023829) can0 5D7#00001290BE90FA
(1725839573.025727) can0 1BD#0CC40D9C0000016B
(1725839573.025936) can0 356#67FF00FF0000
(1725839573.026172) can0 1BB#1F61000003000000
(1725839573.026428) can0 401#0000000000000000
(1725839573.026553) can0 3F9#00
(1725839573.026790) can0 405#000000003C3FE000
(1725839573.027003) can0 186#182831B31D0021
(1725839573.027236) can0 189#31D31D3F70CE0000
(1725839573.027467) can0 18A#31D80006A204D090
(1725839573.027706) can0 1F6#1E20805C810105FE
(1725839573.027942) can0 579#011011110006C300
(1725839573.028517) can0 3F7#081004
(1725839573.028753) can0 17A#31D545AA00003200
(1725839573.029002) can0 17C#181C50085F0C0000
(1725839573.029250) can0 17E#0000000000400800
(1725839573.029503) can0 20C#0000000000000000
(1725839573.032781) can0 12E#C57FFC7FD0FFFF00
(1725839573.032945) can0 090#00000000
(1725839573.033186) can0 0C6#800A8000800BB6B4
(1725839573.033416) can0 211#4E0E095BDD2000E2
(1725839573.033642) can0 242#0000FFEFFE000D
(1725839573.033806) can0 214#0400
(1725839573.034029) can0 29C#00000000FFFFFFFF
(1725839573.034284) can0 354#0000000000000000
(1725839573.035392) can0 500#021AF30164
(1725839573.035614) can0 350#C74EA3E414989485
(1725839573.035873) can0 55D#011DF00092800001
(1725839573.036763) can0 186#182831B31D0021
(1725839573.036991) can0 189#31D31D3F70CE0000
(1725839573.037227) can0 18A#31D80006A2049AA0
(1725839573.037465) can0 1F6#1E20805C810105FE
(1725839573.037695) can0 217#0B000000000000
(1725839573.037912) can0 2C6#FFFFFFFFFFF0
(1725839573.038588) can0 17A#31D545AA00003200
(1725839573.038827) can0 17C#182050085F0C0000
(1725839573.039083) can0 17E#0000000000400800
(1725839573.039335) can0 20C#0000000000000000
(1725839573.042799) can0 12E#C57FFC7FE0FFFF00
(1725839573.042964) can0 090#00000000
(1725839573.043204) can0 0C6#800A7FF6800BB8BD
(1725839573.043455) can0 29A#0000000000000EF1
(1725839573.043624) can0 2B7#00E0FFFE01
(1725839573.043789) can0 666#34000000
(1725839573.045780) can0 1BD#0CC40D9C0000016B
(1725839573.046846) can0 186#182831B31D0021
(1725839573.047074) can0 189#31D31D3F70CE0000
(1725839573.047306) can0 18A#31D80006A20457B0
(1725839573.047545) can0 1F6#1E20805C810105FE
(1725839573.048598) can0 17A#31D545AA00003200
(1725839573.048837) can0 17C#182450085F0C0000
(1725839573.049092) can0 17E#0000000000400800
(1725839573.049344) can0 20C#0000000000000000
(1725839573.052837) can0 12E#C57FFC7FE0FFFF00
(1725839573.053001) can0 090#00000000
(1725839573.053243) can0 0C6#800A8000800BBAB0
(1725839573.053474) can0 211#4E0E0953DD2000E2
(1725839573.053700) can0 242#0000FFEFFE000D
(1725839573.053957) can0 29C#00000000FFFFFFFF
(1725839573.054084) can0 214#0400
(1725839573.054257) can0 352#5C000000
(1725839573.054378) can0 218#98
(1725839573.054550) can0 4FA#0800
(1725839573.054714) can0 671#0200
(1725839573.055436) can0 5DE#0400008000000042
(1725839573.055562) can0 552#0004
(1725839573.055802) can0 303#595A1518664000
(1725839573.055967) can0 3FA#0000
(1725839573.056829) can0 186#182631B31D0021
(1725839573.057056) can0 189#31D31C3F70CE0000
(1725839573.057292) can0 18A#31D80006A2040EC0
(1725839573.057530) can0 1F6#1E20805C810105FE
(1725839573.057757) can0 217#0B000000000000
(1725839573.057967) can0 2C6#FFFFFFFFFFF0
(1725839573.058179) can0 511#00004F6ECD1125
(1725839573.058414) can0 596#8A1B8B601A000000
(1725839573.058649) can0 17A#31D545AA00003200
(1725839573.058892) can0 17C#182850085F0C0000
(1725839573.059147) can0 17E#0000000000400800
(1725839573.059399) can0 20C#0000000000000000
(1725839573.059624) can0 5DA#8A614000D535EB00
(1725839573.059788) can0 634#800000
(1725839573.060015) can0 648#FFFFF064C864FA1E
(1725839573.060179) can0 65C#C05800
(1725839573.060399) can0 66A#20FE001B1BC01F02
(1725839573.062787) can0 12E#C67FFC7FD0FFFF00
(1725839573.062951) can0 090#00000000
(1725839573.063192) can0 0C6#800A8000800BBCAE
(1725839573.063447) can0 29A#0000000000000FF0
(1725839573.063612) can0 2B7#00E0FFFE01
(1725839573.064078) can0 392#0046000000
(1725839573.065422) can0 673#0000FFFFFFFF00
(1725839573.065548) can0 575#4014
(1725839573.065876) can0 1BD#0CC40D9C0000016B
(1725839573.066086) can0 356#67FF00FF0000
(1725839573.066913) can0 186#182631B31D0021
(1725839573.067140) can0 189#31D31C3F70CE0000
(1725839573.067376) can0 18A#31D80006A204C3D0
(1725839573.067614) can0 1F6#1E20805C810105FE
(1725839573.068612) can0 17A#31D545AA00003200
(1725839573.068851) can0 17C#182450085F0C0000
(1725839573.069106) can0 17E#0000000000400800
(1725839573.069358) can0 20C#0000000000000000
(1725839573.071640) can0 593#0FFF0000
(1725839573.072795) can0 12E#C67FFC7FD0FFFF00
(1725839573.072959) can0 090#00000000
(1725839573.073200) can0 0C6#800A800A800BBEA2
(1725839573.073431) can0 211#4E0E0953DD2000E2
(1725839573.073656) can0 242#0000FFEFFE000D
(1725839573.073914) can0 29C#00000000FFFFFFFF
(1725839573.074040) can0 214#0400
(1725839573.074298) can0 354#0000000000000000
(1725839573.075278) can0 657#0000
(1725839573.076630) can0 68B#F20CE4
(1725839573.076841) can0 186#182631B31D0021
(1725839573.077070) can0 189#31D31C3F70CE0000
(1725839573.077304) can0 18A#31D80006A20489E0
(1725839573.077542) can0 1F6#1E20805C810105FE
(1725839573.077769) can0 217#0B000000000000
(1725839573.077979) can0 2C6#FFFFFFFFFFF0
(1725839573.078628) can0 17A#31D545AA00003200
(1725839573.078868) can0 17C#182450085F0C0000
(1725839573.079123) can0 17E#0000000000400800
(1725839573.079375) can0 20C#0000000000000000
(1725839573.081257) can0 62C#00
(1725839573.081383) can0 1A0#F0
(1725839573.081509) can0 563#1740
(1725839573.082738) can0 12E#C67FFC7FB0FFFF00
(1725839573.082903) can0 090#00000000
(1725839573.083144) can0 0C6#800A7FF6800BA0D5
(1725839573.083395) can0 29A#00000000000000FF
(1725839573.083560) can0 2B7#00E0FFFE01
(1725839573.085241) can0 4AC#80
(1725839573.085406) can0 45C#00000000
(1725839573.085570) can0 5DF#00A4
(1725839573.085896) can0 1BD#0CC40D9C0000016B
(1725839573.086780) can0 186#182631B31D0021
(1725839573.087007) can0 189#31D31C3F70CE0000
(1725839573.087241) can0 18A#31D80006A20444F0
(1725839573.087479) can0 1F6#1E20805C810105FE
(1725839573.088508) can0 3F7#081004
(1725839573.088744) can0 17A#31D545AA00003200
(1725839573.088994) can0 17C#182450085F0C0000
(1725839573.089243) can0 17E#0000000000400800
(1725839573.089496) can0 20C#0000000000000000
(1725839573.092796) can0 12E#C67FFC7FB0FFFF00
(1725839573.092960) can0 090#00000000
(1725839573.093209) can0 0C6#800A8000800BA2C8
(1725839573.093433) can0 211#4E0E0953DD2000E2
(1725839573.093659) can0 242#0000FFEFFE000D
(1725839573.093916) can0 29C#00000000FFFFFFFF
(1725839573.094042) can0 214#0400
(1725839573.094216) can0 352#5C000000
(1725839573.096314) can0 653#00415800
(1725839573.096825) can0 186#182231B31D0021
(1725839573.097052) can0 189#31D31C3F70CE0000
(1725839573.097287) can0 18A#31D80006A2043B00
(1725839573.097525) can0 1F6#1E20805C810105FE
(1725839573.097751) can0 217#0B000000000000
(1725839573.097962) can0 2C6#FFFFFFFFFFF0
(1725839573.098599) can0 17A#31D545AA00003200
(1725839573.098838) can0 17C#182450085F0C0000
(1725839573.099093) can0 17E#0000000000400800
(1725839573.099346) can0 20C#0000000000000000
(1725839573.102744) can0 12E#C57FFC7FD0FFFF00
(1725839573.102909) can0 090#00000000
(1725839573.103151) can0 0C6#800A8000800BA4C6
(1725839573.103402) can0 29A#00000000000001FE
(1725839573.103567) can0 2B7#00E0FFFE01
(1725839573.105955) can0 3B7#38FAFF8F7F46FFFF
(1725839573.106185) can0 1BD#0CC40D9C0000016B
(1725839573.106390) can0 356#67FF00FF0000
(1725839573.106554) can0 564#3B20
(1725839573.106964) can0 186#182231B31D0021
(1725839573.107191) can0 189#31D31C3F70CE0000
(1725839573.107425) can0 18A#31D80006A204F610
(1725839573.107664) can0 1F6#1E20805C810105FE
(1725839573.108357) can0 4F8#581430FFFF03FF00
(1725839573.108591) can0 17A#31D545AA00003200
(1725839573.108841) can0 17C#182050085F0C0000
(1725839573.109091) can0 17E#0000000000400800
(1725839573.109343) can0 20C#0000000000000000
(1725839573.112806) can0 12E#C57FFC7FD0FFFF00
(1725839573.112971) can0 090#00000000
(1725839573.113208) can0 0C6#800A800A800BA6BA
(1725839573.113439) can0 211#4E0E0953DD2000E2
(1725839573.113665) can0 242#0000FFEFFE000D
(1725839573.113922) can0 29C#00000000FFFFFFFF
(1725839573.114048) can0 214#0400
(1725839573.114307) can0 354#0000000000000000
(1725839573.114471) can0 392#0046000000
(1725839573.114635) can0 668#4000
(1725839573.116793) can0 186#182231B31D0021
(1725839573.117020) can0 189#31D31D3F70CE0000
(1725839573.117257) can0 18A#31D80006A204BC20
(1725839573.117495) can0 1F6#1E20805C810105FE
(1725839573.117721) can0 217#0B000000000000
(1725839573.117931) can0 2C6#FFFFFFFFFFF0
(1725839573.118603) can0 17A#31D545AA00003200
(1725839573.118842) can0 17C#182050085F0C0000
(1725839573.119097) can0 17E#0000000000400800
(1725839573.119349) can0 20C#0000000000000000
(1725839573.122796) can0 12E#C57FFC7FE0FFFF00
(1725839573.122960) can0 090#00000000
(1725839573.123201) can0 0C6#800A7FF6800BA8CD
(1725839573.123452) can0 29A#00000000000002FD
(1725839573.123616) can0 2B7#00E0FFFE01
(1725839573.123850) can0 5D7#00001290BE90FA
(1725839573.126069) can0 1BD#0D480D9C0000016B
(1725839573.126300) can0 579#011011110006C300
(1725839573.126549) can0 1BB#1F61000003000000
(1725839573.126778) can0 186#182231B31D0021
(1725839573.127010) can0 189#31D31D3F70CE0000
(1725839573.127245) can0 18A#31D80006A2047130
(1725839573.127483) can0 1F6#1E20805C810105FE
(1725839573.128603) can0 17A#31D545AA00003200
(1725839573.128842) can0 17C#182050085F0C0000
(1725839573.129097) can0 17E#0000000000400800
(1725839573.129349) can0 20C#0000000000000000
(1725839573.132828) can0 12E#C57FFC7FE0FFFF00
(1725839573.132992) can0 090#00000000
(1725839573.133242) can0 0C6#800A8000800BAAC0
(1725839573.133467) can0 211#4E0E0953DD2000E2
(1725839573.133693) can0 242#0000FFEFFE000D
(1725839573.133950) can0 29C#00000000FFFFFFFF
(1725839573.134076) can0 214#0400
(1725839573.134250) can0 352#5C000000
(1725839573.135422) can0 350#C74EA3E414989485
(1725839573.135586) can0 500#0234D4C98E
(1725839573.135844) can0 55D#011DF00092800001
(1725839573.137231) can0 186#182631B31D0021
(1725839573.137458) can0 189#31D31D3F70CE0000
(1725839573.137692) can0 18A#31D80006A2042840
(1725839573.137930) can0 1F6#1E20805C810105FE
(1725839573.138156) can0 217#0B000000000000
(1725839573.138367) can0 2C6#FFFFFFFFFFF0
(1725839573.138626) can0 17A#31D545AA00003200
(1725839573.138865) can0 17C#182050085F0C0000
(1725839573.139120) can0 17E#0000000000400800
(1725839573.139373) can0 20C#0000000000000000
(1725839573.142809) can0 12E#C57FFC7FF0FFFF00
(1725839573.142981) can0 090#00000000
(1725839573.143198) can0 0C6#800A8000800BACBE
(1725839573.143451) can0 29A#00000000000003FC
(1725839573.143614) can0 2B7#00E0FFFE01
(1725839573.143821) can0 666#34000000
(1725839573.146114) can0 1BD#0D480D9C0000016B
(1725839573.146320) can0 356#67FF00FF0000
(1725839573.147021) can0 186#182631B31D0021
(1725839573.147248) can0 189#31D31D3F70CE0000
(1725839573.147482) can0 18A#31D80006A204E550
(1725839573.147720) can0 1F6#1E20805C810105FE
(1725839573.148518) can0 3F7#081004
(1725839573.148755) can0 17A#31D545AA00003200
(1725839573.149004) can0 17C#182450085F0C0000
(1725839573.149254) can0 17E#0000000000400800
(1725839573.149506) can0 20C#0000000000000000
(1725839573.152769) can0 12E#C57FFC7FF0FFFF00
(1725839573.152931) can0 090#00000000
(1725839573.153177) can0 0C6#800A800A800BAEB2
(1725839573.153402) can0 211#4E0E095BDD2000E2
(1725839573.153628) can0 242#0000FFEFFE000D
(1725839573.153885) can0 29C#00000000FFFFFFFF
(1725839573.154047) can0 214#0400
(1725839573.154264) can0 354#0000000000000000
(1725839573.154384) can0 218#98
(1725839573.154555) can0 4FA#0800
(1725839573.154974) can0 671#0200
(1725839573.155404) can0 5DE#0400008000000042
(1725839573.155568) can0 552#0004
(1725839573.155778) can0 303#5954E918664000
(1725839573.155942) can0 3FA#0000
(1725839573.156803) can0 186#182631B31D0021
(1725839573.157030) can0 189#31D31D3F70CE0000
(1725839573.157264) can0 18A#31D80006A204AF60
(1725839573.157503) can0 1F6#1E20805C810105FE
(1725839573.157729) can0 217#0B000000000000
(1725839573.157939) can0 2C6#FFFFFFFFFFF0
(1725839573.158157) can0 511#003F1827381E08
(1725839573.158387) can0 596#8A1B8B601A000000
(1725839573.158628) can0 17A#31D545AA00003200
(1725839573.158877) can0 17C#182450085F0C0000
(1725839573.159127) can0 17E#0000000000400800
(1725839573.159380) can0 20C#0000000000000000
(1725839573.159604) can0 5DA#8A614000D535EB00
(1725839573.159768) can0 634#800000
(1725839573.159995) can0 648#FFFFF064C864FA1E
(1725839573.160159) can0 65C#C05500
(1725839573.160385) can0 66A#20FE001C1CC01F02
(1725839573.162741) can0 12E#C57FFC7FE0FFFF00
(1725839573.162905) can0 090#00000000
(1725839573.163144) can0 0C6#800A7FF6800BB0C5
(1725839573.163396) can0 29A#00000000000004FB
(1725839573.163560) can0 2B7#00E0FFFE01
(1725839573.164094) can0 392#0046000000
(1725839573.165392) can0 673#0000FFFFFFFF00
(1725839573.165518) can0 575#4014
(1725839573.166181) can0 1BD#0D480D9C0000016B
(1725839573.166730) can0 186#182631B31D0021
(1725839573.166958) can0 189#31D31C3F70CE0000
(1725839573.167190) can0 18A#31D80006A2046270
(1725839573.167428) can0 1F6#1E20805C810105FE
(1725839573.168612) can0 17A#31D545AA00003200
(1725839573.168851) can0 17C#182450085F0C0000
(1725839573.169106) can0 17E#0000000000400800
(1725839573.169358) can0 20C#0000000000000000
(1725839573.171640) can0 593#0FFF0000
(1725839573.172777) can0 12E#C57FFC7FE0FFFF00
(1725839573.172941) can0 090#00000000
(1725839573.173190) can0 0C6#800A8000800BB2B8
(1725839573.173414) can0 211#4E0E095BDD2000E2
(1725839573.173640) can0 242#0000FFEFFE000D
(1725839573.173898) can0 29C#00000000FFFFFFFF
(1725839573.174024) can0 214#0400
(1725839573.174197) can0 352#5C000000
(1725839573.175244) can0 657#0000
(1725839573.176644) can0 68B#F20CE4
(1725839573.177277) can0 186#182231B31D0021
(1725839573.177504) can0 189#31D31C3F70CE0000
(1725839573.177740) can0 18A#31D80006A2041D80
(1725839573.177978) can0 1F6#1E20805C810105FE
(1725839573.178204) can0 217#0B000000000000
(1725839573.178410) can0 2C6#FFFFFFFFFFF0
(1725839573.178651) can0 17A#31D545AA00003200
(1725839573.178900) can0 17C#182450085F0C0000
(1725839573.179151) can0 17E#0000000000400800
(1725839573.179403) can0 20C#0000000000000000
(1725839573.181188) can0 62C#00
(1725839573.181314) can0 1A0#F0
(1725839573.181441) can0 563#2410
(1725839573.182762) can0 12E#C57FFC7FE0FFFF00
(1725839573.182926) can0 090#00000000
(1725839573.183167) can0 0C6#800A8000800BB4B6
(1725839573.183418) can0 29A#00000000000005FA
(1725839573.183583) can0 2B7#00E0FFFE01
(1725839573.185210) can0 4AC#80
(1725839573.185374) can0 45C#00000000
(1725839573.185539) can0 5DF#00A4
(1725839573.186219) can0 1BD#0D480D9C0000016B
(1725839573.186428) can0 356#67FF00FF0000
(1725839573.186895) can0 186#182231B31D0021
(1725839573.187122) can0 189#31D31C3F70CE0000
(1725839573.187355) can0 18A#31D80006A204D090
(1725839573.187594) can0 1F6#1E20805C810105FE
(1725839573.188610) can0 17A#31D545AA00003200
(1725839573.188849) can0 17C#182050085F0C0000
(1725839573.189105) can0 17E#0000000000400800
(1725839573.189357) can0 20C#0000000000000000
(1725839573.192808) can0 12E#C57FFC7FE0FFFF00
(1725839573.192972) can0 090#00000000
(1725839573.193212) can0 0C6#800A7FF6800BB6BF
(1725839573.193442) can0 211#4E0E095BDD2000E2
(1725839573.193669) can0 242#0000FFEFFE000D
(1725839573.193833) can0 214#0400
(1725839573.194055) can0 29C#00000000FFFFFFFF
(1725839573.194310) can0 354#0000000000000000
(1725839573.196591) can0 653#00415800
(1725839573.196822) can0 186#182231B31D0021
(1725839573.197054) can0 189#31D31D3F70CE0000
(1725839573.197290) can0 18A#31D80006A2049AA0
(1725839573.197529) can0 1F6#1E20805C810105FE
(1725839573.197755) can0 217#0B000000000000
(1725839573.197965) can0 2C6#FFFFFFFFFFF0
(1725839573.198609) can0 17A#31D545AA00003200
(1725839573.198848) can0 17C#182050085F0C0000
(1725839573.199103) can0 17E#0000000000400800
(1725839573.199355) can0 20C#0000000000000000
(1725839573.202768) can0 12E#C57FFC7FE0FFFF00
(1725839573.202932) can0 090#00000000
(1725839573.203173) can0 0C6#800A800A800BB8A8
(1725839573.203424) can0 29A#00000000000006F9
(1725839573.203589) can0 2B7#00E0FFFE01
(1725839573.206168) can0 3B7#38FAFF8F7F46FFFF
(1725839573.206394) can0 1BD#0D480D9C0000016B
(1725839573.206644) can0 564#2420
(1725839573.206854) can0 186#182231B31D0021
(1725839573.207084) can0 189#31D31D3F70CE0000
(1725839573.207316) can0 18A#31D80006A20457B0
(1725839573.207555) can0 1F6#1E20805C810105FE
(1725839573.208511) can0 3F7#081004
(1725839573.208747) can0 17A#31D545AA00003200
(1725839573.208997) can0 17C#182050085F0C0000
(1725839573.209247) can0 17E#0000000000400800
(1725839573.209499) can0 20C#0000000000000000
(1725839573.210273) can0 4F8#581430FFFF03FF00
(1725839573.212808) can0 12E#C57FFC7FE0FFFF00
(1725839573.212972) can0 090#00000000
(1725839573.213214) can0 0C6#800A8000800BBAB0
(1725839573.213445) can0 211#4E0E095BDD2000E2
(1725839573.213671) can0 242#0000FFEFFE000D
(1725839573.213835) can0 214#0400
(1725839573.214057) can0 29C#00000000FFFFFFFF
(1725839573.214221) can0 352#5C000000
(1725839573.214431) can0 392#0046000000
(1725839573.214557) can0 668#4000
(1725839573.217298) can0 186#181A31B31D0021
(1725839573.217524) can0 189#31D31D3F70CE0000
(1725839573.217760) can0 18A#31D80006A2040EC0
(1725839573.217999) can0 1F6#1E20805C810105FE
(1725839573.218225) can0 217#0B000000000000
(1725839573.218435) can0 2C6#FFFFFFFFFFF0
(1725839573.218671) can0 17A#31D545AA00003200
(1725839573.218921) can0 17C#182050085F0C0000
(1725839573.219171) can0 17E#0000000000400800
(1725839573.219423) can0 20C#0000000000000000
(1725839573.222760) can0 12E#C57FFC7FD0FFFF00
(1725839573.222924) can0 090#00000000
(1725839573.223165) can0 0C6#800A8000800BBCAE
(1725839573.223418) can0 29A#00000000000007F8
(1725839573.223582) can0 2B7#00E0FFFE01
(1725839573.223815) can0 5D7#00001290BE90FA
(1725839573.226329) can0 1BD#0D350D9C0000016B
(1725839573.226539) can0 356#67FF00FF0000
(1725839573.226774) can0 1BB#1F61000003000000
(1725839573.227029) can0 401#0000000000000000
(1725839573.227240) can0 186#181A31B31D0021
(1725839573.227472) can0 189#31D31D3F70CE0000
(1725839573.227709) can0 18A#31D80006A204C3D0
(1725839573.227947) can0 1F6#1E20805C810105FE
(1725839573.228196) can0 405#000000003C3FE000
(1725839573.228412) can0 4A4#00700000000000
(1725839573.228654) can0 17A#31D545AA00003200
(1725839573.228896) can0 17C#181C50085F0C0000
(1725839573.229151) can0 17E#0000000000400800
(1725839573.229403) can0 20C#0000000000000000
(1725839573.229635) can0 579#011011110006C300
(1725839573.232774) can0 12E#C57FFC7FD0FFFF00
(1725839573.232939) can0 090#00000000
(1725839573.233180) can0 0C6#800A800A800BBEA2
(1725839573.233409) can0 211#4E0E095BDD2000E2
(1725839573.233635) can0 242#0000FFEFFE000D
(1725839573.233799) can0 214#0400
(1725839573.234022) can0 29C#00000000FFFFFFFF
(1725839573.234277) can0 354#0000000000000000
(1725839573.235393) can0 350#C74EA3E414989485
(1725839573.235558) can0 500#022FDD9AE4
(1725839573.235815) can0 55D#011DF00092800001
(1725839573.236796) can0 186#181A31B31D0021
(1725839573.237023) can0 189#31D31D3F70CE0000
(1725839573.237257) can0 18A#31D80006A20489E0
(1725839573.237495) can0 1F6#1E20805C810105FE
(1725839573.237722) can0 217#0B000000000000
(1725839573.237933) can0 2C6#FFFFFFFFFFF0
(1725839573.238443) can0 646#354A02AE00291054
(1725839573.238674) can0 17A#31D545AA00003200
(1725839573.238924) can0 17C#181850085F0C0000
(1725839573.239174) can0 17E#0000000000400800
(1725839573.239426) can0 20C#0000000000000000
(1725839573.242764) can0 12E#C57FFC7FB0FFFF00
(1725839573.242929) can0 090#00000000
(1725839573.243169) can0 0C6#800A7FF6800BA0D5
(1725839573.243419) can0 29A#00000000000008F7
(1725839573.243583) can0 2B7#00E0FFFE01
(1725839573.243746) can0 666#34000000
(1725839573.246374) can0 1BD#0D350D9C0000016B
(1725839573.247573) can0 186#181A31B31D0021
(1725839573.247801) can0 189#31D31D3F70CE0000
(1725839573.248035) can0 18A#31D80006A20444F0
(1725839573.248273) can0 1F6#1E20805C810105FE
(1725839573.248609) can0 17A#31D545AA00003200
(1725839573.248848) can0 17C#181850085F0C0000
(1725839573.249103) can0 17E#0000000000400800
(1725839573.249355) can0 20C#0000000000000000
(1725839573.252791) can0 12E#C57FFC7FB0FFFF00
(1725839573.252956) can0 090#00000000
(1725839573.253198) can0 0C6#800A8000800BA2C8
(1725839573.253429) can0 211#4E0E095BDD2000E2
(1725839573.253655) can0 242#0000FFEFFE000D
(1725839573.253819) can0 214#0400
(1725839573.254041) can0 29C#00000000FFFFFFFF
(1725839573.254167) can0 218#98
(1725839573.254339) can0 352#5C000000
(1725839573.254465) can0 4FA#0800
(1725839573.254791) can0 671#0200
(1725839573.255375) can0 5DE#0400008000000042
(1725839573.255501) can0 552#0004
(1725839573.255741) can0 303#59BD8D18664000
(1725839573.255906) can0 3FA#0000
(1725839573.256890) can0 186#183031B31D0021
(1725839573.257117) can0 189#31D31D3F70CE0000
(1725839573.257351) can0 18A#31D80006A2043B00
(1725839573.257589) can0 1F6#1E20805C810105FE
(1725839573.257816) can0 217#0B000000000000
(1725839573.258026) can0 2C6#FFFFFFFFFFF0
(1725839573.258240) can0 511#007EE1E0A32BEB
(1725839573.258474) can0 596#8A1C8B601A000000
(1725839573.258710) can0 17A#31D545AA00003200
(1725839573.258960) can0 17C#181850085F0C0000
(1725839573.259210) can0 17E#0000000000400800
(1725839573.259462) can0 20C#0000000000000000
(1725839573.259685) can0 5DA#8A614000D535EB00
(1725839573.259850) can0 634#800000
(1725839573.260078) can0 648#FFFFF064C864FA1E
(1725839573.260242) can0 65C#C05800
(1725839573.260468) can0 66A#20FE001C1CC01F02
(1725839573.262775) can0 12E#C67FFC7FB0FFFF00
(1725839573.262940) can0 090#00000000
(1725839573.263189) can0 0C6#800A8000800BA4C6
(1725839573.263429) can0 29A#00000000000009F6
(1725839573.263594) can0 2B7#00E0FFFE01
(1725839573.264107) can0 392#0046000000
(1725839573.265361) can0 673#0000FFFFFFFF00
(1725839573.265487) can0 575#4014
(1725839573.266429) can0 1BD#0D350D9C0000016B
(1725839573.266639) can0 356#67FF00FF0000
(1725839573.266967) can0 186#183031B31D0021
(1725839573.267195) can0 189#31D31D3F70CE0000
(1725839573.267429) can0 18A#31D80006A204F610
(1725839573.267667) can0 1F6#1E20805C810105FE
(1725839573.268575) can0 3F7#081004
(1725839573.268805) can0 17A#31D545AA00003200
(1725839573.269048) can0 17C#181C50085F0C0000
(1725839573.269303) can0 17E#0000000000400800
(1725839573.269555) can0 20C#0000000000000000
(1725839573.271651) can0 593#0FFF0000
(1725839573.272796) can0 12E#C67FFC7FB0FFFF00
(1725839573.272960) can0 090#00000000
(1725839573.273199) can0 0C6#800A800A800BA6BA
(1725839573.273429) can0 211#4E0E095BDD2000E2
(1725839573.273656) can0 242#0000FFEFFE000D
(1725839573.273820) can0 214#0400
(1725839573.274042) can0 29C#00000000FFFFFFFF
(1725839573.274297) can0 354#0000000000000000
(1725839573.275213) can0 657#0000
(1725839573.275378) can0 69F#761725DF
(1725839573.276656) can0 68B#F20CE4
(1725839573.276866) can0 186#183031B31D0021
(1725839573.277097) can0 189#31D31C3F70CE0000
(1725839573.277333) can0 18A#31D80006A204BC20
(1725839573.277572) can0 1F6#1E20805C810105FE
(1725839573.277798) can0 217#0B000000000000
(1725839573.278008) can0 2C6#FFFFFFFFFFF0
(1725839573.278612) can0 17A#31D545AA00003200
(1725839573.278851) can0 17C#182050085F0C0000
(1725839573.279106) can0 17E#0000000000400800
(1725839573.279358) can0 20C#0000000000000000
(1725839573.281120) can0 62C#00
(1725839573.281246) can0 1A0#F0
(1725839573.281372) can0 563#2EA0
(1725839573.282732) can0 12E#C57FFC7FD0FFFF00
(1725839573.282896) can0 090#00000000
(1725839573.283137) can0 0C6#800A7FF6800BA8CD
(1725839573.283387) can0 29A#0000000000000AF5
(1725839573.283551) can0 2B7#00E0FFFE01
(1725839573.285180) can0 4AC#80
(1725839573.285344) can0 45C#00000000
(1725839573.285509) can0 5DF#00A4
(1725839573.286471) can0 1BD#0D350D9C0000016B
(1725839573.287688) can0 186#183631B31C0021
(1725839573.287916) can0 189#31C31C3F70CE0000
(1725839573.288148) can0 18A#31C80006A2046530
(1725839573.288386) can0 1F6#1E20805C810105FE
(1725839573.288622) can0 17A#31D545AA00003200
(1725839573.288872) can0 17C#182450085F0C0000
(1725839573.289122) can0 17E#0000000000400800
(1725839573.289375) can0 20C#0000000000000000
(1725839573.292776) can0 12E#C57FFC7FD0FFFF00
(1725839573.292938) can0 090#00000000
(1725839573.293189) can0 0C6#800A8000800BAAC0
(1725839573.293413) can0 211#4E0E095BDD2000E2
(1725839573.293640) can0 242#0000FFEFFE000D
(1725839573.293802) can0 214#0400
(1725839573.294026) can0 29C#00000000FFFFFFFF
(1725839573.294188) can0 352#5C000000
(1725839573.296334) can0 653#00415800
(1725839573.296836) can0 186#183631B31C0021
(1725839573.297065) can0 189#31C31C3F70CE0000
(1725839573.297299) can0 18A#31C80006A2043C40
(1725839573.297538) can0 1F6#1E20805C810105FE
(1725839573.297764) can0 217#0B000000000000
(1725839573.297974) can0 2C6#FFFFFFFFFFF0
(1725839573.298620) can0 17A#31C545AA00003200
